# vsim -c -coverage -suppress 3009 -t 1ps -do "coverage save -onexit coverage_db/tc015_stress_test.ucdb; run -all; quit" tb_top "+UVM_TESTNAME=tc015_stress_test" -l logs\tc015_stress_test.log 
# Start time: 09:06:20 on Jun 07,2026
# ** Note: (vsim-8009) Loading existing optimized design _opt
# //  Questa Sim-64
# //  Version 10.7c win64 Aug 18 2018
# //
# //  Copyright 1991-2018 Mentor Graphics Corporation
# //  All Rights Reserved.
# //
# //  QuestaSim and its associated documentation contain trade
# //  secrets and commercial or financial information that are the property of
# //  Mentor Graphics Corporation and are privileged, confidential,
# //  and exempt from disclosure under the Freedom of Information Act,
# //  5 U.S.C. Section 552. Furthermore, this information
# //  is prohibited from disclosure under the Trade Secrets Act,
# //  18 U.S.C. Section 1905.
# //
# Loading sv_std.std
# Loading work.axi4lite_if(fast)
# Loading mtiUvm.uvm_pkg
# Loading work.axi4lite_pkg(fast)
# Loading work.tb_top_sv_unit(fast)
# Loading work.tb_top(fast)
# Loading work.axi4lite_slave_bfm(fast)
# Loading mtiUvm.questa_uvm_pkg(fast)
# ** Warning: (vsim-8637) A modport ('monitor_mp') should not be used in a hierarchical path.
#    Time: 0 ps  Iteration: 0  Region: /axi4lite_pkg File: ../tb/monitor/axi4lite_monitor.sv Line: 51
# ** Warning: (vsim-8637) A modport ('master_mp') should not be used in a hierarchical path.
#    Time: 0 ps  Iteration: 0  Region: /axi4lite_pkg::axi4lite_driver File: ../tb/driver/axi4lite_driver.sv Line: 39
# Loading C:/questasim64_10.7c/uvm-1.1d\win64\uvm_dpi.dll
# coverage save -onexit coverage_db/tc015_stress_test.ucdb
#  run -all
# ----------------------------------------------------------------
# UVM-1.1d
# (C) 2007-2013 Mentor Graphics Corporation
# (C) 2007-2013 Cadence Design Systems, Inc.
# (C) 2006-2013 Synopsys, Inc.
# (C) 2011-2013 Cypress Semiconductor Corp.
# ----------------------------------------------------------------
# 
#   ***********       IMPORTANT RELEASE NOTES         ************
# 
#   You are using a version of the UVM library that has been compiled
#   with `UVM_NO_DEPRECATED undefined.
#   See http://www.eda.org/svdb/view.php?id=3313 for more details.
# 
#   You are using a version of the UVM library that has been compiled
#   with `UVM_OBJECT_MUST_HAVE_CONSTRUCTOR undefined.
#   See http://www.eda.org/svdb/view.php?id=3770 for more details.
# 
#       (Specify +UVM_NO_RELNOTES to turn off this notice)
# 
# UVM_INFO verilog_src/questa_uvm_pkg-1.2/src/questa_uvm_pkg.sv(215) @ 0: reporter [Questa UVM] QUESTA_UVM-1.2.3
# UVM_INFO verilog_src/questa_uvm_pkg-1.2/src/questa_uvm_pkg.sv(216) @ 0: reporter [Questa UVM]  questa_uvm::init(+struct)
# UVM_INFO @ 0: reporter [RNTST] Running test tc015_stress_test...
# UVM_INFO ../tb/test/axi4lite_base_test.sv(63) @ 0: uvm_test_top [tc015_stress_test] Build complete: num_transactions=20 seed=0
# UVM_INFO @ 0: reporter [UVMTOP] UVM testbench topology:
# --------------------------------------------------------------
# Name                       Type                    Size  Value
# --------------------------------------------------------------
# uvm_test_top               tc015_stress_test       -     @472 
#   env                      axi4lite_env            -     @486 
#     agent                  axi4lite_agent          -     @496 
#       ap                   uvm_analysis_port       -     @526 
#       drv                  axi4lite_driver         -     @653 
#         rsp_port           uvm_analysis_port       -     @668 
#         seq_item_port      uvm_seq_item_pull_port  -     @660 
#       mon                  axi4lite_monitor        -     @535 
#         ap                 uvm_analysis_port       -     @678 
#       seqr                 axi4lite_sequencer      -     @544 
#         rsp_export         uvm_analysis_export     -     @551 
#         seq_item_export    uvm_seq_item_pull_imp   -     @645 
#         arbitration_queue  array                   0     -    
#         lock_queue         array                   0     -    
#         num_last_reqs      integral                32    'd1  
#         num_last_rsps      integral                32    'd1  
#     coverage               axi4lite_coverage       -     @510 
#       analysis_imp         uvm_analysis_imp        -     @517 
#     scoreboard             axi4lite_scoreboard     -     @503 
#       analysis_export      uvm_analysis_imp        -     @692 
# --------------------------------------------------------------
# 
# UVM_INFO ../tb/agent/axi4lite_agent.sv(69) @ 0: uvm_test_top.env.agent [axi4lite_agent] Agent mode: UVM_ACTIVE
# UVM_INFO ../tb/env/axi4lite_env.sv(64) @ 0: uvm_test_top.env [axi4lite_env] Environment topology:
# UVM_INFO @ 0: reporter [UVMTOP] UVM testbench topology:
# --------------------------------------------------------------
# Name                       Type                    Size  Value
# --------------------------------------------------------------
# uvm_test_top               tc015_stress_test       -     @472 
#   env                      axi4lite_env            -     @486 
#     agent                  axi4lite_agent          -     @496 
#       ap                   uvm_analysis_port       -     @526 
#       drv                  axi4lite_driver         -     @653 
#         rsp_port           uvm_analysis_port       -     @668 
#         seq_item_port      uvm_seq_item_pull_port  -     @660 
#       mon                  axi4lite_monitor        -     @535 
#         ap                 uvm_analysis_port       -     @678 
#       seqr                 axi4lite_sequencer      -     @544 
#         rsp_export         uvm_analysis_export     -     @551 
#         seq_item_export    uvm_seq_item_pull_imp   -     @645 
#         arbitration_queue  array                   0     -    
#         lock_queue         array                   0     -    
#         num_last_reqs      integral                32    'd1  
#         num_last_rsps      integral                32    'd1  
#     coverage               axi4lite_coverage       -     @510 
#       analysis_imp         uvm_analysis_imp        -     @517 
#     scoreboard             axi4lite_scoreboard     -     @503 
#       analysis_export      uvm_analysis_imp        -     @692 
# --------------------------------------------------------------
# 
# UVM_INFO ../tb/test/axi4lite_base_test.sv(90) @ 0: uvm_test_top [tc015_stress_test] Waiting for reset deassertion...
# UVM_INFO ../tb/tb_top.sv(99) @ 95000: reporter [TB_TOP] Reset deasserted
# UVM_INFO ../tb/test/axi4lite_base_test.sv(95) @ 125000: uvm_test_top [tc015_stress_test] Reset deasserted. Starting test.
# UVM_INFO ../tb/test/axi4lite_tests.sv(331) @ 125000: uvm_test_top [tc015_stress_test] === TC015: Stress Test (1000 transactions) ===
# UVM_INFO ../tb/sequence/axi4lite_sequences.sv(265) @ 125000: uvm_test_top.env.agent.seqr@@seq [tc015_stress_seq] TC015: Stress Test - 1000 transactions
# UVM_INFO ../tb/driver/axi4lite_driver.sv(218) @ 175000: uvm_test_top.env.agent.drv [axi4lite_driver] [READ ] ADDR=0x00000938 RDATA=0x00000000 RRESP=AXI_OKAY
# UVM_INFO ../tb/sequence/axi4lite_sequences.sv(270) @ 175000: uvm_test_top.env.agent.seqr@@seq [tc015_stress_seq] Stress: 0/1000 transactions sent
# UVM_INFO ../tb/driver/axi4lite_driver.sv(162) @ 235000: uvm_test_top.env.agent.drv [axi4lite_driver] [WRITE] ADDR=0x00000128 DATA=0x00000dc4 WSTRB=4'b0111 BRESP=AXI_OKAY
# UVM_INFO ../tb/driver/axi4lite_driver.sv(162) @ 295000: uvm_test_top.env.agent.drv [axi4lite_driver] [WRITE] ADDR=0x00000638 DATA=0x0000e8b6 WSTRB=4'b1111 BRESP=AXI_OKAY
# UVM_INFO ../tb/driver/axi4lite_driver.sv(162) @ 355000: uvm_test_top.env.agent.drv [axi4lite_driver] [WRITE] ADDR=0x00000398 DATA=0x00001ae7 WSTRB=4'b1001 BRESP=AXI_OKAY
# UVM_INFO ../tb/driver/axi4lite_driver.sv(218) @ 395000: uvm_test_top.env.agent.drv [axi4lite_driver] [READ ] ADDR=0x00000be0 RDATA=0x00000000 RRESP=AXI_OKAY
# UVM_INFO ../tb/driver/axi4lite_driver.sv(218) @ 435000: uvm_test_top.env.agent.drv [axi4lite_driver] [READ ] ADDR=0x0000063c RDATA=0x00000000 RRESP=AXI_OKAY
# UVM_INFO ../tb/driver/axi4lite_driver.sv(162) @ 485000: uvm_test_top.env.agent.drv [axi4lite_driver] [WRITE] ADDR=0x00000438 DATA=0x00002634 WSTRB=4'b0001 BRESP=AXI_OKAY
# UVM_INFO ../tb/driver/axi4lite_driver.sv(218) @ 525000: uvm_test_top.env.agent.drv [axi4lite_driver] [READ ] ADDR=0x00000ed4 RDATA=0x00000000 RRESP=AXI_OKAY
# UVM_INFO ../tb/driver/axi4lite_driver.sv(218) @ 575000: uvm_test_top.env.agent.drv [axi4lite_driver] [READ ] ADDR=0x00000344 RDATA=0x00000000 RRESP=AXI_OKAY
# UVM_INFO ../tb/driver/axi4lite_driver.sv(218) @ 625000: uvm_test_top.env.agent.drv [axi4lite_driver] [READ ] ADDR=0x00000bfc RDATA=0x00000000 RRESP=AXI_OKAY
# UVM_INFO ../tb/driver/axi4lite_driver.sv(162) @ 675000: uvm_test_top.env.agent.drv [axi4lite_driver] [WRITE] ADDR=0x0000037c DATA=0x000078cc WSTRB=4'b0101 BRESP=AXI_OKAY
# UVM_INFO ../tb/driver/axi4lite_driver.sv(218) @ 715000: uvm_test_top.env.agent.drv [axi4lite_driver] [READ ] ADDR=0x00000d8c RDATA=0x00000000 RRESP=AXI_OKAY
# UVM_INFO ../tb/driver/axi4lite_driver.sv(162) @ 765000: uvm_test_top.env.agent.drv [axi4lite_driver] [WRITE] ADDR=0x00000498 DATA=0x0000144b WSTRB=4'b0001 BRESP=AXI_OKAY
# UVM_INFO ../tb/driver/axi4lite_driver.sv(162) @ 815000: uvm_test_top.env.agent.drv [axi4lite_driver] [WRITE] ADDR=0x00000334 DATA=0x0000cc0f WSTRB=4'b1101 BRESP=AXI_OKAY
# UVM_INFO ../tb/driver/axi4lite_driver.sv(162) @ 865000: uvm_test_top.env.agent.drv [axi4lite_driver] [WRITE] ADDR=0x00000cb0 DATA=0x00003fea WSTRB=4'b0011 BRESP=AXI_OKAY
# UVM_INFO ../tb/driver/axi4lite_driver.sv(218) @ 905000: uvm_test_top.env.agent.drv [axi4lite_driver] [READ ] ADDR=0x00000adc RDATA=0x00000000 RRESP=AXI_OKAY
# UVM_INFO ../tb/driver/axi4lite_driver.sv(218) @ 945000: uvm_test_top.env.agent.drv [axi4lite_driver] [READ ] ADDR=0x00000394 RDATA=0x00000000 RRESP=AXI_OKAY
# UVM_INFO ../tb/driver/axi4lite_driver.sv(162) @ 995000: uvm_test_top.env.agent.drv [axi4lite_driver] [WRITE] ADDR=0x00000c0c DATA=0x000001e2 WSTRB=4'b0010 BRESP=AXI_OKAY
# UVM_INFO ../tb/driver/axi4lite_driver.sv(218) @ 1035000: uvm_test_top.env.agent.drv [axi4lite_driver] [READ ] ADDR=0x00000918 RDATA=0x00000000 RRESP=AXI_OKAY
# UVM_INFO ../tb/driver/axi4lite_driver.sv(162) @ 1095000: uvm_test_top.env.agent.drv [axi4lite_driver] [WRITE] ADDR=0x000004c4 DATA=0x00006b86 WSTRB=4'b1010 BRESP=AXI_OKAY
# UVM_INFO ../tb/driver/axi4lite_driver.sv(162) @ 1145000: uvm_test_top.env.agent.drv [axi4lite_driver] [WRITE] ADDR=0x000008fc DATA=0x0000ba12 WSTRB=4'b0001 BRESP=AXI_OKAY
# UVM_INFO ../tb/driver/axi4lite_driver.sv(162) @ 1195000: uvm_test_top.env.agent.drv [axi4lite_driver] [WRITE] ADDR=0x00000f24 DATA=0x0000809d WSTRB=4'b0010 BRESP=AXI_OKAY
# UVM_INFO ../tb/driver/axi4lite_driver.sv(162) @ 1245000: uvm_test_top.env.agent.drv [axi4lite_driver] [WRITE] ADDR=0x00000330 DATA=0x00005275 WSTRB=4'b1010 BRESP=AXI_OKAY
# UVM_INFO ../tb/driver/axi4lite_driver.sv(162) @ 1305000: uvm_test_top.env.agent.drv [axi4lite_driver] [WRITE] ADDR=0x0000011c DATA=0x000065f5 WSTRB=4'b1111 BRESP=AXI_OKAY
# UVM_INFO ../tb/driver/axi4lite_driver.sv(162) @ 1355000: uvm_test_top.env.agent.drv [axi4lite_driver] [WRITE] ADDR=0x0000007c DATA=0x0000c4d4 WSTRB=4'b1001 BRESP=AXI_OKAY
# UVM_INFO ../tb/driver/axi4lite_driver.sv(162) @ 1405000: uvm_test_top.env.agent.drv [axi4lite_driver] [WRITE] ADDR=0x00000d70 DATA=0x0000da76 WSTRB=4'b0101 BRESP=AXI_OKAY
# UVM_INFO ../tb/driver/axi4lite_driver.sv(162) @ 1465000: uvm_test_top.env.agent.drv [axi4lite_driver] [WRITE] ADDR=0x0000022c DATA=0x0000c764 WSTRB=4'b0001 BRESP=AXI_OKAY
# UVM_INFO ../tb/driver/axi4lite_driver.sv(162) @ 1515000: uvm_test_top.env.agent.drv [axi4lite_driver] [WRITE] ADDR=0x000008fc DATA=0x00007c1c WSTRB=4'b1001 BRESP=AXI_OKAY
# UVM_INFO ../tb/driver/axi4lite_driver.sv(162) @ 1575000: uvm_test_top.env.agent.drv [axi4lite_driver] [WRITE] ADDR=0x000002e0 DATA=0x0000f797 WSTRB=4'b0011 BRESP=AXI_OKAY
# UVM_INFO ../tb/driver/axi4lite_driver.sv(162) @ 1635000: uvm_test_top.env.agent.drv [axi4lite_driver] [WRITE] ADDR=0x00000370 DATA=0x000090d7 WSTRB=4'b0010 BRESP=AXI_OKAY
# UVM_INFO ../tb/driver/axi4lite_driver.sv(162) @ 1685000: uvm_test_top.env.agent.drv [axi4lite_driver] [WRITE] ADDR=0x00000cd0 DATA=0x00003746 WSTRB=4'b0011 BRESP=AXI_OKAY
# UVM_INFO ../tb/driver/axi4lite_driver.sv(218) @ 1735000: uvm_test_top.env.agent.drv [axi4lite_driver] [READ ] ADDR=0x00000e0c RDATA=0x00000000 RRESP=AXI_OKAY
# UVM_INFO ../tb/driver/axi4lite_driver.sv(218) @ 1775000: uvm_test_top.env.agent.drv [axi4lite_driver] [READ ] ADDR=0x000008e8 RDATA=0x00000000 RRESP=AXI_OKAY
# UVM_INFO ../tb/driver/axi4lite_driver.sv(218) @ 1815000: uvm_test_top.env.agent.drv [axi4lite_driver] [READ ] ADDR=0x00000964 RDATA=0x00000000 RRESP=AXI_OKAY
# UVM_INFO ../tb/driver/axi4lite_driver.sv(162) @ 1865000: uvm_test_top.env.agent.drv [axi4lite_driver] [WRITE] ADDR=0x000007a0 DATA=0x00008408 WSTRB=4'b0100 BRESP=AXI_OKAY
# UVM_INFO ../tb/driver/axi4lite_driver.sv(218) @ 1905000: uvm_test_top.env.agent.drv [axi4lite_driver] [READ ] ADDR=0x00000fd8 RDATA=0x00000000 RRESP=AXI_OKAY
# UVM_INFO ../tb/driver/axi4lite_driver.sv(162) @ 1955000: uvm_test_top.env.agent.drv [axi4lite_driver] [WRITE] ADDR=0x00000130 DATA=0x00000d8a WSTRB=4'b0100 BRESP=AXI_OKAY
# UVM_INFO ../tb/driver/axi4lite_driver.sv(218) @ 2005000: uvm_test_top.env.agent.drv [axi4lite_driver] [READ ] ADDR=0x000001e0 RDATA=0x00000000 RRESP=AXI_OKAY
# UVM_INFO ../tb/driver/axi4lite_driver.sv(162) @ 2065000: uvm_test_top.env.agent.drv [axi4lite_driver] [WRITE] ADDR=0x000002f4 DATA=0x0000104d WSTRB=4'b0110 BRESP=AXI_OKAY
# UVM_INFO ../tb/driver/axi4lite_driver.sv(162) @ 2125000: uvm_test_top.env.agent.drv [axi4lite_driver] [WRITE] ADDR=0x00000804 DATA=0x0000468a WSTRB=4'b0001 BRESP=AXI_OKAY
# UVM_INFO ../tb/driver/axi4lite_driver.sv(162) @ 2175000: uvm_test_top.env.agent.drv [axi4lite_driver] [WRITE] ADDR=0x00000b10 DATA=0x00007007 WSTRB=4'b1001 BRESP=AXI_OKAY
# UVM_INFO ../tb/driver/axi4lite_driver.sv(162) @ 2235000: uvm_test_top.env.agent.drv [axi4lite_driver] [WRITE] ADDR=0x000001dc DATA=0x00002399 WSTRB=4'b0011 BRESP=AXI_OKAY
# UVM_INFO ../tb/driver/axi4lite_driver.sv(218) @ 2285000: uvm_test_top.env.agent.drv [axi4lite_driver] [READ ] ADDR=0x00000e18 RDATA=0x00000000 RRESP=AXI_OKAY
# UVM_INFO ../tb/driver/axi4lite_driver.sv(162) @ 2345000: uvm_test_top.env.agent.drv [axi4lite_driver] [WRITE] ADDR=0x0000072c DATA=0x0000ba74 WSTRB=4'b1101 BRESP=AXI_OKAY
# UVM_INFO ../tb/driver/axi4lite_driver.sv(162) @ 2395000: uvm_test_top.env.agent.drv [axi4lite_driver] [WRITE] ADDR=0x00000998 DATA=0x0000f875 WSTRB=4'b1101 BRESP=AXI_OKAY
# UVM_INFO ../tb/driver/axi4lite_driver.sv(218) @ 2445000: uvm_test_top.env.agent.drv [axi4lite_driver] [READ ] ADDR=0x00000ff4 RDATA=0x00000000 RRESP=AXI_OKAY
# UVM_INFO ../tb/driver/axi4lite_driver.sv(218) @ 2485000: uvm_test_top.env.agent.drv [axi4lite_driver] [READ ] ADDR=0x000008ec RDATA=0x00000000 RRESP=AXI_OKAY
# UVM_INFO ../tb/driver/axi4lite_driver.sv(162) @ 2535000: uvm_test_top.env.agent.drv [axi4lite_driver] [WRITE] ADDR=0x000009fc DATA=0x0000d711 WSTRB=4'b1011 BRESP=AXI_OKAY
# UVM_INFO ../tb/driver/axi4lite_driver.sv(218) @ 2575000: uvm_test_top.env.agent.drv [axi4lite_driver] [READ ] ADDR=0x0000042c RDATA=0x00000000 RRESP=AXI_OKAY
# UVM_INFO ../tb/driver/axi4lite_driver.sv(218) @ 2615000: uvm_test_top.env.agent.drv [axi4lite_driver] [READ ] ADDR=0x0000018c RDATA=0x00000000 RRESP=AXI_OKAY
# UVM_INFO ../tb/driver/axi4lite_driver.sv(162) @ 2665000: uvm_test_top.env.agent.drv [axi4lite_driver] [WRITE] ADDR=0x000004e8 DATA=0x0000126f WSTRB=4'b1011 BRESP=AXI_OKAY
# UVM_INFO ../tb/driver/axi4lite_driver.sv(162) @ 2725000: uvm_test_top.env.agent.drv [axi4lite_driver] [WRITE] ADDR=0x00000354 DATA=0x0000e3d8 WSTRB=4'b0111 BRESP=AXI_OKAY
# UVM_INFO ../tb/driver/axi4lite_driver.sv(218) @ 2765000: uvm_test_top.env.agent.drv [axi4lite_driver] [READ ] ADDR=0x00000e50 RDATA=0x00000000 RRESP=AXI_OKAY
# UVM_INFO ../tb/driver/axi4lite_driver.sv(218) @ 2805000: uvm_test_top.env.agent.drv [axi4lite_driver] [READ ] ADDR=0x00000c2c RDATA=0x00000000 RRESP=AXI_OKAY
# UVM_INFO ../tb/driver/axi4lite_driver.sv(162) @ 2865000: uvm_test_top.env.agent.drv [axi4lite_driver] [WRITE] ADDR=0x00000ea4 DATA=0x0000e3cb WSTRB=4'b1000 BRESP=AXI_OKAY
# UVM_INFO ../tb/driver/axi4lite_driver.sv(162) @ 2915000: uvm_test_top.env.agent.drv [axi4lite_driver] [WRITE] ADDR=0x00000cac DATA=0x000019ee WSTRB=4'b0111 BRESP=AXI_OKAY
# UVM_INFO ../tb/driver/axi4lite_driver.sv(218) @ 2955000: uvm_test_top.env.agent.drv [axi4lite_driver] [READ ] ADDR=0x0000081c RDATA=0x00000000 RRESP=AXI_OKAY
# UVM_INFO ../tb/driver/axi4lite_driver.sv(162) @ 3005000: uvm_test_top.env.agent.drv [axi4lite_driver] [WRITE] ADDR=0x00000640 DATA=0x00009fca WSTRB=4'b0111 BRESP=AXI_OKAY
# UVM_INFO ../tb/driver/axi4lite_driver.sv(218) @ 3045000: uvm_test_top.env.agent.drv [axi4lite_driver] [READ ] ADDR=0x000001fc RDATA=0x00000000 RRESP=AXI_OKAY
# UVM_INFO ../tb/driver/axi4lite_driver.sv(218) @ 3085000: uvm_test_top.env.agent.drv [axi4lite_driver] [READ ] ADDR=0x00000ad0 RDATA=0x00000000 RRESP=AXI_OKAY
# UVM_INFO ../tb/driver/axi4lite_driver.sv(162) @ 3145000: uvm_test_top.env.agent.drv [axi4lite_driver] [WRITE] ADDR=0x00000910 DATA=0x000007ca WSTRB=4'b0111 BRESP=AXI_OKAY
# UVM_INFO ../tb/driver/axi4lite_driver.sv(162) @ 3195000: uvm_test_top.env.agent.drv [axi4lite_driver] [WRITE] ADDR=0x00000bcc DATA=0x00009851 WSTRB=4'b1001 BRESP=AXI_OKAY
# UVM_INFO ../tb/driver/axi4lite_driver.sv(218) @ 3235000: uvm_test_top.env.agent.drv [axi4lite_driver] [READ ] ADDR=0x00000b3c RDATA=0x00000000 RRESP=AXI_OKAY
# UVM_INFO ../tb/driver/axi4lite_driver.sv(218) @ 3285000: uvm_test_top.env.agent.drv [axi4lite_driver] [READ ] ADDR=0x00000a0c RDATA=0x00000000 RRESP=AXI_OKAY
# UVM_INFO ../tb/driver/axi4lite_driver.sv(162) @ 3345000: uvm_test_top.env.agent.drv [axi4lite_driver] [WRITE] ADDR=0x00000494 DATA=0x0000d764 WSTRB=4'b1100 BRESP=AXI_OKAY
# UVM_INFO ../tb/driver/axi4lite_driver.sv(162) @ 3405000: uvm_test_top.env.agent.drv [axi4lite_driver] [WRITE] ADDR=0x000001b8 DATA=0x00007d04 WSTRB=4'b1011 BRESP=AXI_OKAY
# UVM_INFO ../tb/driver/axi4lite_driver.sv(218) @ 3445000: uvm_test_top.env.agent.drv [axi4lite_driver] [READ ] ADDR=0x00000400 RDATA=0x00000000 RRESP=AXI_OKAY
# UVM_INFO ../tb/driver/axi4lite_driver.sv(218) @ 3495000: uvm_test_top.env.agent.drv [axi4lite_driver] [READ ] ADDR=0x000009b4 RDATA=0x00000000 RRESP=AXI_OKAY
# UVM_INFO ../tb/driver/axi4lite_driver.sv(218) @ 3535000: uvm_test_top.env.agent.drv [axi4lite_driver] [READ ] ADDR=0x000008bc RDATA=0x00000000 RRESP=AXI_OKAY
# UVM_INFO ../tb/driver/axi4lite_driver.sv(162) @ 3585000: uvm_test_top.env.agent.drv [axi4lite_driver] [WRITE] ADDR=0x00000e1c DATA=0x00004192 WSTRB=4'b0010 BRESP=AXI_OKAY
# UVM_INFO ../tb/driver/axi4lite_driver.sv(162) @ 3635000: uvm_test_top.env.agent.drv [axi4lite_driver] [WRITE] ADDR=0x00000234 DATA=0x00003a99 WSTRB=4'b0111 BRESP=AXI_OKAY
# UVM_INFO ../tb/driver/axi4lite_driver.sv(162) @ 3685000: uvm_test_top.env.agent.drv [axi4lite_driver] [WRITE] ADDR=0x00000c00 DATA=0x0000a120 WSTRB=4'b1101 BRESP=AXI_OKAY
# UVM_INFO ../tb/driver/axi4lite_driver.sv(162) @ 3745000: uvm_test_top.env.agent.drv [axi4lite_driver] [WRITE] ADDR=0x00000960 DATA=0x0000c9cf WSTRB=4'b0101 BRESP=AXI_OKAY
# UVM_INFO ../tb/driver/axi4lite_driver.sv(162) @ 3795000: uvm_test_top.env.agent.drv [axi4lite_driver] [WRITE] ADDR=0x00000ef0 DATA=0x00009b6a WSTRB=4'b0001 BRESP=AXI_OKAY
# UVM_INFO ../tb/driver/axi4lite_driver.sv(218) @ 3835000: uvm_test_top.env.agent.drv [axi4lite_driver] [READ ] ADDR=0x00000e9c RDATA=0x00000000 RRESP=AXI_OKAY
# UVM_INFO ../tb/driver/axi4lite_driver.sv(162) @ 3885000: uvm_test_top.env.agent.drv [axi4lite_driver] [WRITE] ADDR=0x00000104 DATA=0x0000072e WSTRB=4'b1111 BRESP=AXI_OKAY
# UVM_INFO ../tb/driver/axi4lite_driver.sv(162) @ 3945000: uvm_test_top.env.agent.drv [axi4lite_driver] [WRITE] ADDR=0x00000744 DATA=0x0000153b WSTRB=4'b1000 BRESP=AXI_OKAY
# UVM_INFO ../tb/driver/axi4lite_driver.sv(218) @ 3995000: uvm_test_top.env.agent.drv [axi4lite_driver] [READ ] ADDR=0x0000099c RDATA=0x00000000 RRESP=AXI_OKAY
# UVM_INFO ../tb/driver/axi4lite_driver.sv(162) @ 4045000: uvm_test_top.env.agent.drv [axi4lite_driver] [WRITE] ADDR=0x0000098c DATA=0x00004b61 WSTRB=4'b1110 BRESP=AXI_OKAY
# UVM_INFO ../tb/driver/axi4lite_driver.sv(218) @ 4095000: uvm_test_top.env.agent.drv [axi4lite_driver] [READ ] ADDR=0x00000254 RDATA=0x00000000 RRESP=AXI_OKAY
# UVM_INFO ../tb/driver/axi4lite_driver.sv(218) @ 4145000: uvm_test_top.env.agent.drv [axi4lite_driver] [READ ] ADDR=0x00000d48 RDATA=0x00000000 RRESP=AXI_OKAY
# UVM_INFO ../tb/driver/axi4lite_driver.sv(162) @ 4195000: uvm_test_top.env.agent.drv [axi4lite_driver] [WRITE] ADDR=0x00000ce8 DATA=0x0000a5cf WSTRB=4'b0011 BRESP=AXI_OKAY
# UVM_INFO ../tb/driver/axi4lite_driver.sv(162) @ 4255000: uvm_test_top.env.agent.drv [axi4lite_driver] [WRITE] ADDR=0x00000eb4 DATA=0x000089fc WSTRB=4'b0110 BRESP=AXI_OKAY
# UVM_INFO ../tb/driver/axi4lite_driver.sv(218) @ 4295000: uvm_test_top.env.agent.drv [axi4lite_driver] [READ ] ADDR=0x00000d78 RDATA=0x00000000 RRESP=AXI_OKAY
# UVM_INFO ../tb/driver/axi4lite_driver.sv(162) @ 4345000: uvm_test_top.env.agent.drv [axi4lite_driver] [WRITE] ADDR=0x00000798 DATA=0x0000513d WSTRB=4'b1000 BRESP=AXI_OKAY
# UVM_INFO ../tb/driver/axi4lite_driver.sv(162) @ 4405000: uvm_test_top.env.agent.drv [axi4lite_driver] [WRITE] ADDR=0x00000ee4 DATA=0x00008743 WSTRB=4'b0111 BRESP=AXI_OKAY
# UVM_INFO ../tb/driver/axi4lite_driver.sv(218) @ 4445000: uvm_test_top.env.agent.drv [axi4lite_driver] [READ ] ADDR=0x00000e5c RDATA=0x00000000 RRESP=AXI_OKAY
# UVM_INFO ../tb/driver/axi4lite_driver.sv(162) @ 4495000: uvm_test_top.env.agent.drv [axi4lite_driver] [WRITE] ADDR=0x00000d60 DATA=0x0000fa4d WSTRB=4'b1111 BRESP=AXI_OKAY
# UVM_INFO ../tb/driver/axi4lite_driver.sv(218) @ 4535000: uvm_test_top.env.agent.drv [axi4lite_driver] [READ ] ADDR=0x00000014 RDATA=0x00000000 RRESP=AXI_OKAY
# UVM_INFO ../tb/driver/axi4lite_driver.sv(218) @ 4575000: uvm_test_top.env.agent.drv [axi4lite_driver] [READ ] ADDR=0x00000a44 RDATA=0x00000000 RRESP=AXI_OKAY
# UVM_INFO ../tb/driver/axi4lite_driver.sv(218) @ 4615000: uvm_test_top.env.agent.drv [axi4lite_driver] [READ ] ADDR=0x00000154 RDATA=0x00000000 RRESP=AXI_OKAY
# UVM_INFO ../tb/driver/axi4lite_driver.sv(218) @ 4665000: uvm_test_top.env.agent.drv [axi4lite_driver] [READ ] ADDR=0x00000e18 RDATA=0x00000000 RRESP=AXI_OKAY
# UVM_INFO ../tb/driver/axi4lite_driver.sv(218) @ 4705000: uvm_test_top.env.agent.drv [axi4lite_driver] [READ ] ADDR=0x00000160 RDATA=0x00000000 RRESP=AXI_OKAY
# UVM_INFO ../tb/driver/axi4lite_driver.sv(162) @ 4755000: uvm_test_top.env.agent.drv [axi4lite_driver] [WRITE] ADDR=0x0000004c DATA=0x00000aa2 WSTRB=4'b0111 BRESP=AXI_OKAY
# UVM_INFO ../tb/driver/axi4lite_driver.sv(218) @ 4795000: uvm_test_top.env.agent.drv [axi4lite_driver] [READ ] ADDR=0x000003e8 RDATA=0x00000000 RRESP=AXI_OKAY
# UVM_INFO ../tb/driver/axi4lite_driver.sv(218) @ 4845000: uvm_test_top.env.agent.drv [axi4lite_driver] [READ ] ADDR=0x00000064 RDATA=0x00000000 RRESP=AXI_OKAY
# UVM_INFO ../tb/driver/axi4lite_driver.sv(218) @ 4885000: uvm_test_top.env.agent.drv [axi4lite_driver] [READ ] ADDR=0x00000768 RDATA=0x00000000 RRESP=AXI_OKAY
# UVM_INFO ../tb/driver/axi4lite_driver.sv(162) @ 4935000: uvm_test_top.env.agent.drv [axi4lite_driver] [WRITE] ADDR=0x000001b4 DATA=0x0000daff WSTRB=4'b0001 BRESP=AXI_OKAY
# UVM_INFO ../tb/driver/axi4lite_driver.sv(162) @ 4985000: uvm_test_top.env.agent.drv [axi4lite_driver] [WRITE] ADDR=0x00000f1c DATA=0x000094a5 WSTRB=4'b0110 BRESP=AXI_OKAY
# UVM_INFO ../tb/driver/axi4lite_driver.sv(218) @ 5035000: uvm_test_top.env.agent.drv [axi4lite_driver] [READ ] ADDR=0x0000049c RDATA=0x00000000 RRESP=AXI_OKAY
# UVM_INFO ../tb/driver/axi4lite_driver.sv(218) @ 5075000: uvm_test_top.env.agent.drv [axi4lite_driver] [READ ] ADDR=0x000006c8 RDATA=0x00000000 RRESP=AXI_OKAY
# UVM_INFO ../tb/sequence/axi4lite_sequences.sv(270) @ 5075000: uvm_test_top.env.agent.seqr@@seq [tc015_stress_seq] Stress: 100/1000 transactions sent
# UVM_INFO ../tb/driver/axi4lite_driver.sv(218) @ 5115000: uvm_test_top.env.agent.drv [axi4lite_driver] [READ ] ADDR=0x00000c00 RDATA=0x00000020 RRESP=AXI_OKAY
# UVM_INFO ../tb/driver/axi4lite_driver.sv(218) @ 5155000: uvm_test_top.env.agent.drv [axi4lite_driver] [READ ] ADDR=0x00000cb0 RDATA=0x00003fea RRESP=AXI_OKAY
# UVM_INFO ../tb/driver/axi4lite_driver.sv(218) @ 5205000: uvm_test_top.env.agent.drv [axi4lite_driver] [READ ] ADDR=0x00000c70 RDATA=0x00000000 RRESP=AXI_OKAY
# UVM_INFO ../tb/driver/axi4lite_driver.sv(218) @ 5255000: uvm_test_top.env.agent.drv [axi4lite_driver] [READ ] ADDR=0x0000053c RDATA=0x00000000 RRESP=AXI_OKAY
# UVM_INFO ../tb/driver/axi4lite_driver.sv(162) @ 5315000: uvm_test_top.env.agent.drv [axi4lite_driver] [WRITE] ADDR=0x00000cfc DATA=0x000016a6 WSTRB=4'b1111 BRESP=AXI_OKAY
# UVM_INFO ../tb/driver/axi4lite_driver.sv(218) @ 5355000: uvm_test_top.env.agent.drv [axi4lite_driver] [READ ] ADDR=0x00000844 RDATA=0x00000000 RRESP=AXI_OKAY
# UVM_INFO ../tb/driver/axi4lite_driver.sv(162) @ 5415000: uvm_test_top.env.agent.drv [axi4lite_driver] [WRITE] ADDR=0x00000ae4 DATA=0x0000d429 WSTRB=4'b0101 BRESP=AXI_OKAY
# UVM_INFO ../tb/driver/axi4lite_driver.sv(162) @ 5475000: uvm_test_top.env.agent.drv [axi4lite_driver] [WRITE] ADDR=0x0000075c DATA=0x00002168 WSTRB=4'b0010 BRESP=AXI_OKAY
# UVM_INFO ../tb/driver/axi4lite_driver.sv(162) @ 5525000: uvm_test_top.env.agent.drv [axi4lite_driver] [WRITE] ADDR=0x00000294 DATA=0x00001da5 WSTRB=4'b1011 BRESP=AXI_OKAY
# UVM_INFO ../tb/driver/axi4lite_driver.sv(162) @ 5575000: uvm_test_top.env.agent.drv [axi4lite_driver] [WRITE] ADDR=0x00000e1c DATA=0x0000ac16 WSTRB=4'b0010 BRESP=AXI_OKAY
# UVM_INFO ../tb/driver/axi4lite_driver.sv(218) @ 5625000: uvm_test_top.env.agent.drv [axi4lite_driver] [READ ] ADDR=0x00000c0c RDATA=0x00000100 RRESP=AXI_OKAY
# UVM_INFO ../tb/driver/axi4lite_driver.sv(162) @ 5685000: uvm_test_top.env.agent.drv [axi4lite_driver] [WRITE] ADDR=0x000006e0 DATA=0x0000a69c WSTRB=4'b0110 BRESP=AXI_OKAY
# UVM_INFO ../tb/driver/axi4lite_driver.sv(218) @ 5735000: uvm_test_top.env.agent.drv [axi4lite_driver] [READ ] ADDR=0x00000e54 RDATA=0x00000000 RRESP=AXI_OKAY
# UVM_INFO ../tb/driver/axi4lite_driver.sv(162) @ 5795000: uvm_test_top.env.agent.drv [axi4lite_driver] [WRITE] ADDR=0x000001b0 DATA=0x00006b67 WSTRB=4'b0110 BRESP=AXI_OKAY
# UVM_INFO ../tb/driver/axi4lite_driver.sv(218) @ 5835000: uvm_test_top.env.agent.drv [axi4lite_driver] [READ ] ADDR=0x000003d8 RDATA=0x00000000 RRESP=AXI_OKAY
# UVM_INFO ../tb/driver/axi4lite_driver.sv(162) @ 5885000: uvm_test_top.env.agent.drv [axi4lite_driver] [WRITE] ADDR=0x00000994 DATA=0x0000bbd0 WSTRB=4'b1101 BRESP=AXI_OKAY
# UVM_INFO ../tb/driver/axi4lite_driver.sv(218) @ 5925000: uvm_test_top.env.agent.drv [axi4lite_driver] [READ ] ADDR=0x00000698 RDATA=0x00000000 RRESP=AXI_OKAY
# UVM_INFO ../tb/driver/axi4lite_driver.sv(218) @ 5965000: uvm_test_top.env.agent.drv [axi4lite_driver] [READ ] ADDR=0x00000fb4 RDATA=0x00000000 RRESP=AXI_OKAY
# UVM_INFO ../tb/driver/axi4lite_driver.sv(218) @ 6005000: uvm_test_top.env.agent.drv [axi4lite_driver] [READ ] ADDR=0x00000df4 RDATA=0x00000000 RRESP=AXI_OKAY
# UVM_INFO ../tb/driver/axi4lite_driver.sv(218) @ 6045000: uvm_test_top.env.agent.drv [axi4lite_driver] [READ ] ADDR=0x00000374 RDATA=0x00000000 RRESP=AXI_OKAY
# UVM_INFO ../tb/driver/axi4lite_driver.sv(218) @ 6095000: uvm_test_top.env.agent.drv [axi4lite_driver] [READ ] ADDR=0x000004ac RDATA=0x00000000 RRESP=AXI_OKAY
# UVM_INFO ../tb/driver/axi4lite_driver.sv(218) @ 6135000: uvm_test_top.env.agent.drv [axi4lite_driver] [READ ] ADDR=0x00000df0 RDATA=0x00000000 RRESP=AXI_OKAY
# UVM_INFO ../tb/driver/axi4lite_driver.sv(218) @ 6175000: uvm_test_top.env.agent.drv [axi4lite_driver] [READ ] ADDR=0x0000064c RDATA=0x00000000 RRESP=AXI_OKAY
# UVM_INFO ../tb/driver/axi4lite_driver.sv(218) @ 6225000: uvm_test_top.env.agent.drv [axi4lite_driver] [READ ] ADDR=0x00000838 RDATA=0x00000000 RRESP=AXI_OKAY
# UVM_INFO ../tb/driver/axi4lite_driver.sv(218) @ 6275000: uvm_test_top.env.agent.drv [axi4lite_driver] [READ ] ADDR=0x000007b4 RDATA=0x00000000 RRESP=AXI_OKAY
# UVM_INFO ../tb/driver/axi4lite_driver.sv(218) @ 6315000: uvm_test_top.env.agent.drv [axi4lite_driver] [READ ] ADDR=0x00000884 RDATA=0x00000000 RRESP=AXI_OKAY
# UVM_INFO ../tb/driver/axi4lite_driver.sv(218) @ 6355000: uvm_test_top.env.agent.drv [axi4lite_driver] [READ ] ADDR=0x00000760 RDATA=0x00000000 RRESP=AXI_OKAY
# UVM_INFO ../tb/driver/axi4lite_driver.sv(162) @ 6415000: uvm_test_top.env.agent.drv [axi4lite_driver] [WRITE] ADDR=0x0000041c DATA=0x00005709 WSTRB=4'b0101 BRESP=AXI_OKAY
# UVM_INFO ../tb/driver/axi4lite_driver.sv(218) @ 6455000: uvm_test_top.env.agent.drv [axi4lite_driver] [READ ] ADDR=0x00000ea8 RDATA=0x00000000 RRESP=AXI_OKAY
# UVM_INFO ../tb/driver/axi4lite_driver.sv(162) @ 6515000: uvm_test_top.env.agent.drv [axi4lite_driver] [WRITE] ADDR=0x00000104 DATA=0x0000ea8f WSTRB=4'b1110 BRESP=AXI_OKAY
# UVM_INFO ../tb/driver/axi4lite_driver.sv(162) @ 6565000: uvm_test_top.env.agent.drv [axi4lite_driver] [WRITE] ADDR=0x00000c88 DATA=0x0000f20d WSTRB=4'b0001 BRESP=AXI_OKAY
# UVM_INFO ../tb/driver/axi4lite_driver.sv(218) @ 6615000: uvm_test_top.env.agent.drv [axi4lite_driver] [READ ] ADDR=0x0000081c RDATA=0x00000000 RRESP=AXI_OKAY
# UVM_INFO ../tb/driver/axi4lite_driver.sv(162) @ 6675000: uvm_test_top.env.agent.drv [axi4lite_driver] [WRITE] ADDR=0x00000ae0 DATA=0x00004397 WSTRB=4'b0011 BRESP=AXI_OKAY
# UVM_INFO ../tb/driver/axi4lite_driver.sv(218) @ 6725000: uvm_test_top.env.agent.drv [axi4lite_driver] [READ ] ADDR=0x00000c64 RDATA=0x00000000 RRESP=AXI_OKAY
# UVM_INFO ../tb/driver/axi4lite_driver.sv(162) @ 6775000: uvm_test_top.env.agent.drv [axi4lite_driver] [WRITE] ADDR=0x00000c20 DATA=0x0000b36f WSTRB=4'b0110 BRESP=AXI_OKAY
# UVM_INFO ../tb/driver/axi4lite_driver.sv(218) @ 6825000: uvm_test_top.env.agent.drv [axi4lite_driver] [READ ] ADDR=0x00000bac RDATA=0x00000000 RRESP=AXI_OKAY
# UVM_INFO ../tb/driver/axi4lite_driver.sv(162) @ 6875000: uvm_test_top.env.agent.drv [axi4lite_driver] [WRITE] ADDR=0x000003b8 DATA=0x00005bee WSTRB=4'b0001 BRESP=AXI_OKAY
# UVM_INFO ../tb/driver/axi4lite_driver.sv(218) @ 6915000: uvm_test_top.env.agent.drv [axi4lite_driver] [READ ] ADDR=0x00000ebc RDATA=0x00000000 RRESP=AXI_OKAY
# UVM_INFO ../tb/driver/axi4lite_driver.sv(218) @ 6955000: uvm_test_top.env.agent.drv [axi4lite_driver] [READ ] ADDR=0x00000658 RDATA=0x00000000 RRESP=AXI_OKAY
# UVM_INFO ../tb/driver/axi4lite_driver.sv(218) @ 7005000: uvm_test_top.env.agent.drv [axi4lite_driver] [READ ] ADDR=0x000007fc RDATA=0x00000000 RRESP=AXI_OKAY
# UVM_INFO ../tb/driver/axi4lite_driver.sv(218) @ 7045000: uvm_test_top.env.agent.drv [axi4lite_driver] [READ ] ADDR=0x00000f08 RDATA=0x00000000 RRESP=AXI_OKAY
# UVM_INFO ../tb/driver/axi4lite_driver.sv(162) @ 7095000: uvm_test_top.env.agent.drv [axi4lite_driver] [WRITE] ADDR=0x00000568 DATA=0x0000fba3 WSTRB=4'b1111 BRESP=AXI_OKAY
# UVM_INFO ../tb/driver/axi4lite_driver.sv(162) @ 7145000: uvm_test_top.env.agent.drv [axi4lite_driver] [WRITE] ADDR=0x00000d50 DATA=0x0000ee75 WSTRB=4'b0011 BRESP=AXI_OKAY
# UVM_INFO ../tb/driver/axi4lite_driver.sv(218) @ 7195000: uvm_test_top.env.agent.drv [axi4lite_driver] [READ ] ADDR=0x00000628 RDATA=0x00000000 RRESP=AXI_OKAY
# UVM_INFO ../tb/driver/axi4lite_driver.sv(162) @ 7245000: uvm_test_top.env.agent.drv [axi4lite_driver] [WRITE] ADDR=0x00000b7c DATA=0x00001b18 WSTRB=4'b0001 BRESP=AXI_OKAY
# UVM_INFO ../tb/driver/axi4lite_driver.sv(218) @ 7285000: uvm_test_top.env.agent.drv [axi4lite_driver] [READ ] ADDR=0x00000a78 RDATA=0x00000000 RRESP=AXI_OKAY
# UVM_INFO ../tb/driver/axi4lite_driver.sv(218) @ 7325000: uvm_test_top.env.agent.drv [axi4lite_driver] [READ ] ADDR=0x00000a68 RDATA=0x00000000 RRESP=AXI_OKAY
# UVM_INFO ../tb/driver/axi4lite_driver.sv(162) @ 7375000: uvm_test_top.env.agent.drv [axi4lite_driver] [WRITE] ADDR=0x00000170 DATA=0x0000555b WSTRB=4'b1111 BRESP=AXI_OKAY
# UVM_INFO ../tb/driver/axi4lite_driver.sv(162) @ 7425000: uvm_test_top.env.agent.drv [axi4lite_driver] [WRITE] ADDR=0x00000b50 DATA=0x00002cd5 WSTRB=4'b0101 BRESP=AXI_OKAY
# UVM_INFO ../tb/driver/axi4lite_driver.sv(218) @ 7465000: uvm_test_top.env.agent.drv [axi4lite_driver] [READ ] ADDR=0x00000834 RDATA=0x00000000 RRESP=AXI_OKAY
# UVM_INFO ../tb/driver/axi4lite_driver.sv(162) @ 7515000: uvm_test_top.env.agent.drv [axi4lite_driver] [WRITE] ADDR=0x00000220 DATA=0x0000065f WSTRB=4'b1011 BRESP=AXI_OKAY
# UVM_INFO ../tb/driver/axi4lite_driver.sv(162) @ 7565000: uvm_test_top.env.agent.drv [axi4lite_driver] [WRITE] ADDR=0x0000094c DATA=0x0000e493 WSTRB=4'b0101 BRESP=AXI_OKAY
# UVM_INFO ../tb/driver/axi4lite_driver.sv(162) @ 7625000: uvm_test_top.env.agent.drv [axi4lite_driver] [WRITE] ADDR=0x00000800 DATA=0x0000deaf WSTRB=4'b0010 BRESP=AXI_OKAY
# UVM_INFO ../tb/driver/axi4lite_driver.sv(218) @ 7665000: uvm_test_top.env.agent.drv [axi4lite_driver] [READ ] ADDR=0x00000f04 RDATA=0x00000000 RRESP=AXI_OKAY
# UVM_INFO ../tb/driver/axi4lite_driver.sv(162) @ 7725000: uvm_test_top.env.agent.drv [axi4lite_driver] [WRITE] ADDR=0x00000db0 DATA=0x00007d80 WSTRB=4'b1101 BRESP=AXI_OKAY
# UVM_INFO ../tb/driver/axi4lite_driver.sv(162) @ 7775000: uvm_test_top.env.agent.drv [axi4lite_driver] [WRITE] ADDR=0x00000d84 DATA=0x00009068 WSTRB=4'b1101 BRESP=AXI_OKAY
# UVM_INFO ../tb/driver/axi4lite_driver.sv(218) @ 7825000: uvm_test_top.env.agent.drv [axi4lite_driver] [READ ] ADDR=0x00000b44 RDATA=0x00000000 RRESP=AXI_OKAY
# UVM_INFO ../tb/driver/axi4lite_driver.sv(162) @ 7875000: uvm_test_top.env.agent.drv [axi4lite_driver] [WRITE] ADDR=0x000006f0 DATA=0x0000dfa2 WSTRB=4'b1110 BRESP=AXI_OKAY
# UVM_INFO ../tb/driver/axi4lite_driver.sv(218) @ 7915000: uvm_test_top.env.agent.drv [axi4lite_driver] [READ ] ADDR=0x00000aec RDATA=0x00000000 RRESP=AXI_OKAY
# UVM_INFO ../tb/driver/axi4lite_driver.sv(218) @ 7955000: uvm_test_top.env.agent.drv [axi4lite_driver] [READ ] ADDR=0x000006f8 RDATA=0x00000000 RRESP=AXI_OKAY
# UVM_INFO ../tb/driver/axi4lite_driver.sv(218) @ 7995000: uvm_test_top.env.agent.drv [axi4lite_driver] [READ ] ADDR=0x000002b0 RDATA=0x00000000 RRESP=AXI_OKAY
# UVM_INFO ../tb/driver/axi4lite_driver.sv(218) @ 8035000: uvm_test_top.env.agent.drv [axi4lite_driver] [READ ] ADDR=0x00000970 RDATA=0x00000000 RRESP=AXI_OKAY
# UVM_INFO ../tb/driver/axi4lite_driver.sv(218) @ 8085000: uvm_test_top.env.agent.drv [axi4lite_driver] [READ ] ADDR=0x00000850 RDATA=0x00000000 RRESP=AXI_OKAY
# UVM_INFO ../tb/driver/axi4lite_driver.sv(218) @ 8125000: uvm_test_top.env.agent.drv [axi4lite_driver] [READ ] ADDR=0x00000014 RDATA=0x00000000 RRESP=AXI_OKAY
# UVM_INFO ../tb/driver/axi4lite_driver.sv(218) @ 8165000: uvm_test_top.env.agent.drv [axi4lite_driver] [READ ] ADDR=0x000008ac RDATA=0x00000000 RRESP=AXI_OKAY
# UVM_INFO ../tb/driver/axi4lite_driver.sv(162) @ 8225000: uvm_test_top.env.agent.drv [axi4lite_driver] [WRITE] ADDR=0x00000ad0 DATA=0x000035b1 WSTRB=4'b0111 BRESP=AXI_OKAY
# UVM_INFO ../tb/driver/axi4lite_driver.sv(218) @ 8275000: uvm_test_top.env.agent.drv [axi4lite_driver] [READ ] ADDR=0x0000073c RDATA=0x00000000 RRESP=AXI_OKAY
# UVM_INFO ../tb/driver/axi4lite_driver.sv(218) @ 8325000: uvm_test_top.env.agent.drv [axi4lite_driver] [READ ] ADDR=0x00000364 RDATA=0x00000000 RRESP=AXI_OKAY
# UVM_INFO ../tb/driver/axi4lite_driver.sv(218) @ 8375000: uvm_test_top.env.agent.drv [axi4lite_driver] [READ ] ADDR=0x00000034 RDATA=0x00000000 RRESP=AXI_OKAY
# UVM_INFO ../tb/driver/axi4lite_driver.sv(218) @ 8425000: uvm_test_top.env.agent.drv [axi4lite_driver] [READ ] ADDR=0x00000c9c RDATA=0x00000000 RRESP=AXI_OKAY
# UVM_INFO ../tb/driver/axi4lite_driver.sv(218) @ 8465000: uvm_test_top.env.agent.drv [axi4lite_driver] [READ ] ADDR=0x00000c8c RDATA=0x00000000 RRESP=AXI_OKAY
# UVM_INFO ../tb/driver/axi4lite_driver.sv(162) @ 8515000: uvm_test_top.env.agent.drv [axi4lite_driver] [WRITE] ADDR=0x00000410 DATA=0x0000f831 WSTRB=4'b1100 BRESP=AXI_OKAY
# UVM_INFO ../tb/driver/axi4lite_driver.sv(162) @ 8565000: uvm_test_top.env.agent.drv [axi4lite_driver] [WRITE] ADDR=0x000009b4 DATA=0x0000146f WSTRB=4'b1100 BRESP=AXI_OKAY
# UVM_INFO ../tb/driver/axi4lite_driver.sv(162) @ 8615000: uvm_test_top.env.agent.drv [axi4lite_driver] [WRITE] ADDR=0x00000778 DATA=0x000033ec WSTRB=4'b1010 BRESP=AXI_OKAY
# UVM_INFO ../tb/driver/axi4lite_driver.sv(218) @ 8665000: uvm_test_top.env.agent.drv [axi4lite_driver] [READ ] ADDR=0x00000c84 RDATA=0x00000000 RRESP=AXI_OKAY
# UVM_INFO ../tb/driver/axi4lite_driver.sv(218) @ 8705000: uvm_test_top.env.agent.drv [axi4lite_driver] [READ ] ADDR=0x00000798 RDATA=0x00000000 RRESP=AXI_OKAY
# UVM_INFO ../tb/driver/axi4lite_driver.sv(162) @ 8765000: uvm_test_top.env.agent.drv [axi4lite_driver] [WRITE] ADDR=0x0000001c DATA=0x0000946d WSTRB=4'b1111 BRESP=AXI_OKAY
# UVM_INFO ../tb/driver/axi4lite_driver.sv(162) @ 8815000: uvm_test_top.env.agent.drv [axi4lite_driver] [WRITE] ADDR=0x00000f24 DATA=0x00001f6d WSTRB=4'b0101 BRESP=AXI_OKAY
# UVM_INFO ../tb/driver/axi4lite_driver.sv(162) @ 8875000: uvm_test_top.env.agent.drv [axi4lite_driver] [WRITE] ADDR=0x000006ac DATA=0x00001130 WSTRB=4'b0101 BRESP=AXI_OKAY
# UVM_INFO ../tb/driver/axi4lite_driver.sv(162) @ 8925000: uvm_test_top.env.agent.drv [axi4lite_driver] [WRITE] ADDR=0x00000154 DATA=0x0000c4c2 WSTRB=4'b0001 BRESP=AXI_OKAY
# UVM_INFO ../tb/driver/axi4lite_driver.sv(218) @ 8965000: uvm_test_top.env.agent.drv [axi4lite_driver] [READ ] ADDR=0x000006c4 RDATA=0x00000000 RRESP=AXI_OKAY
# UVM_INFO ../tb/driver/axi4lite_driver.sv(162) @ 9015000: uvm_test_top.env.agent.drv [axi4lite_driver] [WRITE] ADDR=0x00000af0 DATA=0x00003bb1 WSTRB=4'b1010 BRESP=AXI_OKAY
# UVM_INFO ../tb/driver/axi4lite_driver.sv(162) @ 9075000: uvm_test_top.env.agent.drv [axi4lite_driver] [WRITE] ADDR=0x00000d60 DATA=0x00006dac WSTRB=4'b0101 BRESP=AXI_OKAY
# UVM_INFO ../tb/driver/axi4lite_driver.sv(218) @ 9125000: uvm_test_top.env.agent.drv [axi4lite_driver] [READ ] ADDR=0x00000904 RDATA=0x00000000 RRESP=AXI_OKAY
# UVM_INFO ../tb/driver/axi4lite_driver.sv(218) @ 9165000: uvm_test_top.env.agent.drv [axi4lite_driver] [READ ] ADDR=0x000004b8 RDATA=0x00000000 RRESP=AXI_OKAY
# UVM_INFO ../tb/driver/axi4lite_driver.sv(162) @ 9225000: uvm_test_top.env.agent.drv [axi4lite_driver] [WRITE] ADDR=0x00000490 DATA=0x0000cf84 WSTRB=4'b0100 BRESP=AXI_OKAY
# UVM_INFO ../tb/driver/axi4lite_driver.sv(162) @ 9275000: uvm_test_top.env.agent.drv [axi4lite_driver] [WRITE] ADDR=0x000003f8 DATA=0x0000912b WSTRB=4'b1010 BRESP=AXI_OKAY
# UVM_INFO ../tb/driver/axi4lite_driver.sv(218) @ 9315000: uvm_test_top.env.agent.drv [axi4lite_driver] [READ ] ADDR=0x00000cac RDATA=0x000019ee RRESP=AXI_OKAY
# UVM_INFO ../tb/driver/axi4lite_driver.sv(218) @ 9355000: uvm_test_top.env.agent.drv [axi4lite_driver] [READ ] ADDR=0x00000850 RDATA=0x00000000 RRESP=AXI_OKAY
# UVM_INFO ../tb/driver/axi4lite_driver.sv(162) @ 9415000: uvm_test_top.env.agent.drv [axi4lite_driver] [WRITE] ADDR=0x000004dc DATA=0x000060a2 WSTRB=4'b1011 BRESP=AXI_OKAY
# UVM_INFO ../tb/driver/axi4lite_driver.sv(162) @ 9465000: uvm_test_top.env.agent.drv [axi4lite_driver] [WRITE] ADDR=0x00000c54 DATA=0x00007622 WSTRB=4'b1111 BRESP=AXI_OKAY
# UVM_INFO ../tb/driver/axi4lite_driver.sv(162) @ 9525000: uvm_test_top.env.agent.drv [axi4lite_driver] [WRITE] ADDR=0x00000f88 DATA=0x0000263e WSTRB=4'b1110 BRESP=AXI_OKAY
# UVM_INFO ../tb/driver/axi4lite_driver.sv(162) @ 9575000: uvm_test_top.env.agent.drv [axi4lite_driver] [WRITE] ADDR=0x00000c30 DATA=0x0000653d WSTRB=4'b0101 BRESP=AXI_OKAY
# UVM_INFO ../tb/driver/axi4lite_driver.sv(218) @ 9615000: uvm_test_top.env.agent.drv [axi4lite_driver] [READ ] ADDR=0x00000c80 RDATA=0x00000000 RRESP=AXI_OKAY
# UVM_INFO ../tb/driver/axi4lite_driver.sv(162) @ 9675000: uvm_test_top.env.agent.drv [axi4lite_driver] [WRITE] ADDR=0x00000dfc DATA=0x0000cc77 WSTRB=4'b1011 BRESP=AXI_OKAY
# UVM_INFO ../tb/driver/axi4lite_driver.sv(218) @ 9715000: uvm_test_top.env.agent.drv [axi4lite_driver] [READ ] ADDR=0x00000dac RDATA=0x00000000 RRESP=AXI_OKAY
# UVM_INFO ../tb/driver/axi4lite_driver.sv(218) @ 9765000: uvm_test_top.env.agent.drv [axi4lite_driver] [READ ] ADDR=0x00000774 RDATA=0x00000000 RRESP=AXI_OKAY
# UVM_INFO ../tb/driver/axi4lite_driver.sv(218) @ 9805000: uvm_test_top.env.agent.drv [axi4lite_driver] [READ ] ADDR=0x00000668 RDATA=0x00000000 RRESP=AXI_OKAY
# UVM_INFO ../tb/driver/axi4lite_driver.sv(162) @ 9855000: uvm_test_top.env.agent.drv [axi4lite_driver] [WRITE] ADDR=0x00000794 DATA=0x0000583f WSTRB=4'b1010 BRESP=AXI_OKAY
# UVM_INFO ../tb/driver/axi4lite_driver.sv(218) @ 9905000: uvm_test_top.env.agent.drv [axi4lite_driver] [READ ] ADDR=0x00000b9c RDATA=0x00000000 RRESP=AXI_OKAY
# UVM_INFO ../tb/sequence/axi4lite_sequences.sv(270) @ 9905000: uvm_test_top.env.agent.seqr@@seq [tc015_stress_seq] Stress: 200/1000 transactions sent
# UVM_INFO ../tb/driver/axi4lite_driver.sv(218) @ 9945000: uvm_test_top.env.agent.drv [axi4lite_driver] [READ ] ADDR=0x00000a6c RDATA=0x00000000 RRESP=AXI_OKAY
# UVM_INFO ../tb/driver/axi4lite_driver.sv(162) @ 9995000: uvm_test_top.env.agent.drv [axi4lite_driver] [WRITE] ADDR=0x00000f0c DATA=0x0000ccbf WSTRB=4'b1101 BRESP=AXI_OKAY
# UVM_INFO ../tb/driver/axi4lite_driver.sv(162) @ 10045000: uvm_test_top.env.agent.drv [axi4lite_driver] [WRITE] ADDR=0x000000a4 DATA=0x000032e7 WSTRB=4'b0010 BRESP=AXI_OKAY
# UVM_INFO ../tb/driver/axi4lite_driver.sv(162) @ 10105000: uvm_test_top.env.agent.drv [axi4lite_driver] [WRITE] ADDR=0x00000778 DATA=0x00009a2c WSTRB=4'b1110 BRESP=AXI_OKAY
# UVM_INFO ../tb/driver/axi4lite_driver.sv(162) @ 10155000: uvm_test_top.env.agent.drv [axi4lite_driver] [WRITE] ADDR=0x0000000c DATA=0x00001c3d WSTRB=4'b0010 BRESP=AXI_OKAY
# UVM_INFO ../tb/driver/axi4lite_driver.sv(162) @ 10215000: uvm_test_top.env.agent.drv [axi4lite_driver] [WRITE] ADDR=0x00000f34 DATA=0x0000e43f WSTRB=4'b0101 BRESP=AXI_OKAY
# UVM_INFO ../tb/driver/axi4lite_driver.sv(218) @ 10265000: uvm_test_top.env.agent.drv [axi4lite_driver] [READ ] ADDR=0x00000470 RDATA=0x00000000 RRESP=AXI_OKAY
# UVM_INFO ../tb/driver/axi4lite_driver.sv(162) @ 10315000: uvm_test_top.env.agent.drv [axi4lite_driver] [WRITE] ADDR=0x00000c0c DATA=0x0000be2f WSTRB=4'b1001 BRESP=AXI_OKAY
# UVM_INFO ../tb/driver/axi4lite_driver.sv(218) @ 10365000: uvm_test_top.env.agent.drv [axi4lite_driver] [READ ] ADDR=0x00000908 RDATA=0x00000000 RRESP=AXI_OKAY
# UVM_INFO ../tb/driver/axi4lite_driver.sv(162) @ 10425000: uvm_test_top.env.agent.drv [axi4lite_driver] [WRITE] ADDR=0x00000928 DATA=0x000032e0 WSTRB=4'b1000 BRESP=AXI_OKAY
# UVM_INFO ../tb/driver/axi4lite_driver.sv(162) @ 10485000: uvm_test_top.env.agent.drv [axi4lite_driver] [WRITE] ADDR=0x000007a8 DATA=0x00004f22 WSTRB=4'b1110 BRESP=AXI_OKAY
# UVM_INFO ../tb/driver/axi4lite_driver.sv(162) @ 10545000: uvm_test_top.env.agent.drv [axi4lite_driver] [WRITE] ADDR=0x00000a48 DATA=0x00001204 WSTRB=4'b1000 BRESP=AXI_OKAY
# UVM_INFO ../tb/driver/axi4lite_driver.sv(218) @ 10595000: uvm_test_top.env.agent.drv [axi4lite_driver] [READ ] ADDR=0x00000d94 RDATA=0x00000000 RRESP=AXI_OKAY
# UVM_INFO ../tb/driver/axi4lite_driver.sv(162) @ 10655000: uvm_test_top.env.agent.drv [axi4lite_driver] [WRITE] ADDR=0x000007d0 DATA=0x00004118 WSTRB=4'b1100 BRESP=AXI_OKAY
# UVM_INFO ../tb/driver/axi4lite_driver.sv(162) @ 10705000: uvm_test_top.env.agent.drv [axi4lite_driver] [WRITE] ADDR=0x00000348 DATA=0x0000bee4 WSTRB=4'b1110 BRESP=AXI_OKAY
# UVM_INFO ../tb/driver/axi4lite_driver.sv(162) @ 10755000: uvm_test_top.env.agent.drv [axi4lite_driver] [WRITE] ADDR=0x000000e0 DATA=0x00007dff WSTRB=4'b0001 BRESP=AXI_OKAY
# UVM_INFO ../tb/driver/axi4lite_driver.sv(218) @ 10795000: uvm_test_top.env.agent.drv [axi4lite_driver] [READ ] ADDR=0x00000444 RDATA=0x00000000 RRESP=AXI_OKAY
# UVM_INFO ../tb/driver/axi4lite_driver.sv(162) @ 10845000: uvm_test_top.env.agent.drv [axi4lite_driver] [WRITE] ADDR=0x000000b0 DATA=0x00005945 WSTRB=4'b1000 BRESP=AXI_OKAY
# UVM_INFO ../tb/driver/axi4lite_driver.sv(162) @ 10895000: uvm_test_top.env.agent.drv [axi4lite_driver] [WRITE] ADDR=0x00000be0 DATA=0x00001cf7 WSTRB=4'b0101 BRESP=AXI_OKAY
# UVM_INFO ../tb/driver/axi4lite_driver.sv(162) @ 10945000: uvm_test_top.env.agent.drv [axi4lite_driver] [WRITE] ADDR=0x00000494 DATA=0x0000b52c WSTRB=4'b1110 BRESP=AXI_OKAY
# UVM_INFO ../tb/driver/axi4lite_driver.sv(162) @ 10995000: uvm_test_top.env.agent.drv [axi4lite_driver] [WRITE] ADDR=0x00000184 DATA=0x00009345 WSTRB=4'b1110 BRESP=AXI_OKAY
# UVM_INFO ../tb/driver/axi4lite_driver.sv(218) @ 11035000: uvm_test_top.env.agent.drv [axi4lite_driver] [READ ] ADDR=0x00000224 RDATA=0x00000000 RRESP=AXI_OKAY
# UVM_INFO ../tb/driver/axi4lite_driver.sv(162) @ 11085000: uvm_test_top.env.agent.drv [axi4lite_driver] [WRITE] ADDR=0x00000ef4 DATA=0x00009117 WSTRB=4'b1100 BRESP=AXI_OKAY
# UVM_INFO ../tb/driver/axi4lite_driver.sv(162) @ 11145000: uvm_test_top.env.agent.drv [axi4lite_driver] [WRITE] ADDR=0x00000bcc DATA=0x00005508 WSTRB=4'b0010 BRESP=AXI_OKAY
# UVM_INFO ../tb/driver/axi4lite_driver.sv(218) @ 11185000: uvm_test_top.env.agent.drv [axi4lite_driver] [READ ] ADDR=0x00000b2c RDATA=0x00000000 RRESP=AXI_OKAY
# UVM_INFO ../tb/driver/axi4lite_driver.sv(218) @ 11235000: uvm_test_top.env.agent.drv [axi4lite_driver] [READ ] ADDR=0x00000954 RDATA=0x00000000 RRESP=AXI_OKAY
# UVM_INFO ../tb/driver/axi4lite_driver.sv(218) @ 11285000: uvm_test_top.env.agent.drv [axi4lite_driver] [READ ] ADDR=0x00000528 RDATA=0x00000000 RRESP=AXI_OKAY
# UVM_INFO ../tb/driver/axi4lite_driver.sv(218) @ 11325000: uvm_test_top.env.agent.drv [axi4lite_driver] [READ ] ADDR=0x000001c0 RDATA=0x00000000 RRESP=AXI_OKAY
# UVM_INFO ../tb/driver/axi4lite_driver.sv(162) @ 11375000: uvm_test_top.env.agent.drv [axi4lite_driver] [WRITE] ADDR=0x0000088c DATA=0x0000fe9f WSTRB=4'b0100 BRESP=AXI_OKAY
# UVM_INFO ../tb/driver/axi4lite_driver.sv(218) @ 11425000: uvm_test_top.env.agent.drv [axi4lite_driver] [READ ] ADDR=0x0000085c RDATA=0x00000000 RRESP=AXI_OKAY
# UVM_INFO ../tb/driver/axi4lite_driver.sv(162) @ 11475000: uvm_test_top.env.agent.drv [axi4lite_driver] [WRITE] ADDR=0x00000ad4 DATA=0x0000f0f9 WSTRB=4'b0100 BRESP=AXI_OKAY
# UVM_INFO ../tb/driver/axi4lite_driver.sv(218) @ 11515000: uvm_test_top.env.agent.drv [axi4lite_driver] [READ ] ADDR=0x000006a4 RDATA=0x00000000 RRESP=AXI_OKAY
# UVM_INFO ../tb/driver/axi4lite_driver.sv(218) @ 11555000: uvm_test_top.env.agent.drv [axi4lite_driver] [READ ] ADDR=0x00000b10 RDATA=0x00000007 RRESP=AXI_OKAY
# UVM_INFO ../tb/driver/axi4lite_driver.sv(218) @ 11595000: uvm_test_top.env.agent.drv [axi4lite_driver] [READ ] ADDR=0x0000093c RDATA=0x00000000 RRESP=AXI_OKAY
# UVM_INFO ../tb/driver/axi4lite_driver.sv(218) @ 11635000: uvm_test_top.env.agent.drv [axi4lite_driver] [READ ] ADDR=0x00000c68 RDATA=0x00000000 RRESP=AXI_OKAY
# UVM_INFO ../tb/driver/axi4lite_driver.sv(218) @ 11685000: uvm_test_top.env.agent.drv [axi4lite_driver] [READ ] ADDR=0x00000e58 RDATA=0x00000000 RRESP=AXI_OKAY
# UVM_INFO ../tb/driver/axi4lite_driver.sv(218) @ 11735000: uvm_test_top.env.agent.drv [axi4lite_driver] [READ ] ADDR=0x000001ec RDATA=0x00000000 RRESP=AXI_OKAY
# UVM_INFO ../tb/driver/axi4lite_driver.sv(162) @ 11785000: uvm_test_top.env.agent.drv [axi4lite_driver] [WRITE] ADDR=0x00000330 DATA=0x0000c0fa WSTRB=4'b1100 BRESP=AXI_OKAY
# UVM_INFO ../tb/driver/axi4lite_driver.sv(162) @ 11835000: uvm_test_top.env.agent.drv [axi4lite_driver] [WRITE] ADDR=0x00000fa0 DATA=0x0000cf8a WSTRB=4'b1001 BRESP=AXI_OKAY
# UVM_INFO ../tb/driver/axi4lite_driver.sv(218) @ 11875000: uvm_test_top.env.agent.drv [axi4lite_driver] [READ ] ADDR=0x00000ff0 RDATA=0x00000000 RRESP=AXI_OKAY
# UVM_INFO ../tb/driver/axi4lite_driver.sv(162) @ 11925000: uvm_test_top.env.agent.drv [axi4lite_driver] [WRITE] ADDR=0x00000574 DATA=0x00008b99 WSTRB=4'b1111 BRESP=AXI_OKAY
# UVM_INFO ../tb/driver/axi4lite_driver.sv(218) @ 11965000: uvm_test_top.env.agent.drv [axi4lite_driver] [READ ] ADDR=0x00000298 RDATA=0x00000000 RRESP=AXI_OKAY
# UVM_INFO ../tb/driver/axi4lite_driver.sv(162) @ 12025000: uvm_test_top.env.agent.drv [axi4lite_driver] [WRITE] ADDR=0x0000089c DATA=0x00007fd8 WSTRB=4'b1000 BRESP=AXI_OKAY
# UVM_INFO ../tb/driver/axi4lite_driver.sv(218) @ 12075000: uvm_test_top.env.agent.drv [axi4lite_driver] [READ ] ADDR=0x00000308 RDATA=0x00000000 RRESP=AXI_OKAY
# UVM_INFO ../tb/driver/axi4lite_driver.sv(218) @ 12125000: uvm_test_top.env.agent.drv [axi4lite_driver] [READ ] ADDR=0x00000ac4 RDATA=0x00000000 RRESP=AXI_OKAY
# UVM_INFO ../tb/driver/axi4lite_driver.sv(162) @ 12185000: uvm_test_top.env.agent.drv [axi4lite_driver] [WRITE] ADDR=0x00000574 DATA=0x000049aa WSTRB=4'b1101 BRESP=AXI_OKAY
# UVM_INFO ../tb/driver/axi4lite_driver.sv(162) @ 12235000: uvm_test_top.env.agent.drv [axi4lite_driver] [WRITE] ADDR=0x00000150 DATA=0x000092ab WSTRB=4'b0001 BRESP=AXI_OKAY
# UVM_INFO ../tb/driver/axi4lite_driver.sv(218) @ 12275000: uvm_test_top.env.agent.drv [axi4lite_driver] [READ ] ADDR=0x00000e94 RDATA=0x00000000 RRESP=AXI_OKAY
# UVM_INFO ../tb/driver/axi4lite_driver.sv(162) @ 12335000: uvm_test_top.env.agent.drv [axi4lite_driver] [WRITE] ADDR=0x00000548 DATA=0x00002f15 WSTRB=4'b1011 BRESP=AXI_OKAY
# UVM_INFO ../tb/driver/axi4lite_driver.sv(162) @ 12385000: uvm_test_top.env.agent.drv [axi4lite_driver] [WRITE] ADDR=0x000007b4 DATA=0x000075b0 WSTRB=4'b1000 BRESP=AXI_OKAY
# UVM_INFO ../tb/driver/axi4lite_driver.sv(162) @ 12435000: uvm_test_top.env.agent.drv [axi4lite_driver] [WRITE] ADDR=0x0000015c DATA=0x0000c975 WSTRB=4'b0101 BRESP=AXI_OKAY
# UVM_INFO ../tb/driver/axi4lite_driver.sv(162) @ 12485000: uvm_test_top.env.agent.drv [axi4lite_driver] [WRITE] ADDR=0x000002b8 DATA=0x0000042d WSTRB=4'b0011 BRESP=AXI_OKAY
# UVM_INFO ../tb/driver/axi4lite_driver.sv(162) @ 12535000: uvm_test_top.env.agent.drv [axi4lite_driver] [WRITE] ADDR=0x0000074c DATA=0x0000755a WSTRB=4'b0111 BRESP=AXI_OKAY
# UVM_INFO ../tb/driver/axi4lite_driver.sv(162) @ 12595000: uvm_test_top.env.agent.drv [axi4lite_driver] [WRITE] ADDR=0x000004dc DATA=0x00005722 WSTRB=4'b1010 BRESP=AXI_OKAY
# UVM_INFO ../tb/driver/axi4lite_driver.sv(162) @ 12655000: uvm_test_top.env.agent.drv [axi4lite_driver] [WRITE] ADDR=0x000001bc DATA=0x0000033a WSTRB=4'b1001 BRESP=AXI_OKAY
# UVM_INFO ../tb/driver/axi4lite_driver.sv(162) @ 12715000: uvm_test_top.env.agent.drv [axi4lite_driver] [WRITE] ADDR=0x00000db8 DATA=0x0000ad14 WSTRB=4'b1010 BRESP=AXI_OKAY
# UVM_INFO ../tb/driver/axi4lite_driver.sv(218) @ 12755000: uvm_test_top.env.agent.drv [axi4lite_driver] [READ ] ADDR=0x00000f74 RDATA=0x00000000 RRESP=AXI_OKAY
# UVM_INFO ../tb/driver/axi4lite_driver.sv(162) @ 12805000: uvm_test_top.env.agent.drv [axi4lite_driver] [WRITE] ADDR=0x000002e4 DATA=0x00006c4c WSTRB=4'b0010 BRESP=AXI_OKAY
# UVM_INFO ../tb/driver/axi4lite_driver.sv(162) @ 12855000: uvm_test_top.env.agent.drv [axi4lite_driver] [WRITE] ADDR=0x00000d3c DATA=0x00009fc2 WSTRB=4'b0100 BRESP=AXI_OKAY
# UVM_INFO ../tb/driver/axi4lite_driver.sv(162) @ 12905000: uvm_test_top.env.agent.drv [axi4lite_driver] [WRITE] ADDR=0x00000d38 DATA=0x0000402d WSTRB=4'b1111 BRESP=AXI_OKAY
# UVM_INFO ../tb/driver/axi4lite_driver.sv(218) @ 12945000: uvm_test_top.env.agent.drv [axi4lite_driver] [READ ] ADDR=0x00000884 RDATA=0x00000000 RRESP=AXI_OKAY
# UVM_INFO ../tb/driver/axi4lite_driver.sv(162) @ 13005000: uvm_test_top.env.agent.drv [axi4lite_driver] [WRITE] ADDR=0x00000d04 DATA=0x00002250 WSTRB=4'b1011 BRESP=AXI_OKAY
# UVM_INFO ../tb/driver/axi4lite_driver.sv(218) @ 13055000: uvm_test_top.env.agent.drv [axi4lite_driver] [READ ] ADDR=0x000005b0 RDATA=0x00000000 RRESP=AXI_OKAY
# UVM_INFO ../tb/driver/axi4lite_driver.sv(218) @ 13095000: uvm_test_top.env.agent.drv [axi4lite_driver] [READ ] ADDR=0x00000730 RDATA=0x00000000 RRESP=AXI_OKAY
# UVM_INFO ../tb/driver/axi4lite_driver.sv(162) @ 13145000: uvm_test_top.env.agent.drv [axi4lite_driver] [WRITE] ADDR=0x00000cd4 DATA=0x00006b9b WSTRB=4'b0001 BRESP=AXI_OKAY
# UVM_INFO ../tb/driver/axi4lite_driver.sv(218) @ 13195000: uvm_test_top.env.agent.drv [axi4lite_driver] [READ ] ADDR=0x00000ffc RDATA=0x00000000 RRESP=AXI_OKAY
# UVM_INFO ../tb/driver/axi4lite_driver.sv(218) @ 13235000: uvm_test_top.env.agent.drv [axi4lite_driver] [READ ] ADDR=0x00000ed4 RDATA=0x00000000 RRESP=AXI_OKAY
# UVM_INFO ../tb/driver/axi4lite_driver.sv(218) @ 13285000: uvm_test_top.env.agent.drv [axi4lite_driver] [READ ] ADDR=0x00000048 RDATA=0x00000000 RRESP=AXI_OKAY
# UVM_INFO ../tb/driver/axi4lite_driver.sv(218) @ 13325000: uvm_test_top.env.agent.drv [axi4lite_driver] [READ ] ADDR=0x0000074c RDATA=0x0000755a RRESP=AXI_OKAY
# UVM_INFO ../tb/driver/axi4lite_driver.sv(218) @ 13375000: uvm_test_top.env.agent.drv [axi4lite_driver] [READ ] ADDR=0x00000cc4 RDATA=0x00000000 RRESP=AXI_OKAY
# UVM_INFO ../tb/driver/axi4lite_driver.sv(162) @ 13435000: uvm_test_top.env.agent.drv [axi4lite_driver] [WRITE] ADDR=0x00000774 DATA=0x0000be12 WSTRB=4'b1000 BRESP=AXI_OKAY
# UVM_INFO ../tb/driver/axi4lite_driver.sv(218) @ 13475000: uvm_test_top.env.agent.drv [axi4lite_driver] [READ ] ADDR=0x00000a64 RDATA=0x00000000 RRESP=AXI_OKAY
# UVM_INFO ../tb/driver/axi4lite_driver.sv(218) @ 13525000: uvm_test_top.env.agent.drv [axi4lite_driver] [READ ] ADDR=0x00000584 RDATA=0x00000000 RRESP=AXI_OKAY
# UVM_INFO ../tb/driver/axi4lite_driver.sv(218) @ 13565000: uvm_test_top.env.agent.drv [axi4lite_driver] [READ ] ADDR=0x00000ab4 RDATA=0x00000000 RRESP=AXI_OKAY
# UVM_INFO ../tb/driver/axi4lite_driver.sv(162) @ 13615000: uvm_test_top.env.agent.drv [axi4lite_driver] [WRITE] ADDR=0x000006b4 DATA=0x00000171 WSTRB=4'b0101 BRESP=AXI_OKAY
# UVM_INFO ../tb/driver/axi4lite_driver.sv(162) @ 13675000: uvm_test_top.env.agent.drv [axi4lite_driver] [WRITE] ADDR=0x00000598 DATA=0x00009fe9 WSTRB=4'b0110 BRESP=AXI_OKAY
# UVM_INFO ../tb/driver/axi4lite_driver.sv(218) @ 13715000: uvm_test_top.env.agent.drv [axi4lite_driver] [READ ] ADDR=0x000006c4 RDATA=0x00000000 RRESP=AXI_OKAY
# UVM_INFO ../tb/driver/axi4lite_driver.sv(162) @ 13765000: uvm_test_top.env.agent.drv [axi4lite_driver] [WRITE] ADDR=0x00000340 DATA=0x00000b34 WSTRB=4'b0001 BRESP=AXI_OKAY
# UVM_INFO ../tb/driver/axi4lite_driver.sv(162) @ 13815000: uvm_test_top.env.agent.drv [axi4lite_driver] [WRITE] ADDR=0x00000810 DATA=0x00001d23 WSTRB=4'b1000 BRESP=AXI_OKAY
# UVM_INFO ../tb/driver/axi4lite_driver.sv(218) @ 13865000: uvm_test_top.env.agent.drv [axi4lite_driver] [READ ] ADDR=0x00000858 RDATA=0x00000000 RRESP=AXI_OKAY
# UVM_INFO ../tb/driver/axi4lite_driver.sv(218) @ 13915000: uvm_test_top.env.agent.drv [axi4lite_driver] [READ ] ADDR=0x00000800 RDATA=0x0000de00 RRESP=AXI_OKAY
# UVM_INFO ../tb/driver/axi4lite_driver.sv(218) @ 13955000: uvm_test_top.env.agent.drv [axi4lite_driver] [READ ] ADDR=0x00000874 RDATA=0x00000000 RRESP=AXI_OKAY
# UVM_INFO ../tb/driver/axi4lite_driver.sv(218) @ 14005000: uvm_test_top.env.agent.drv [axi4lite_driver] [READ ] ADDR=0x00000164 RDATA=0x00000000 RRESP=AXI_OKAY
# UVM_INFO ../tb/driver/axi4lite_driver.sv(162) @ 14055000: uvm_test_top.env.agent.drv [axi4lite_driver] [WRITE] ADDR=0x00000b74 DATA=0x0000879c WSTRB=4'b0001 BRESP=AXI_OKAY
# UVM_INFO ../tb/driver/axi4lite_driver.sv(218) @ 14095000: uvm_test_top.env.agent.drv [axi4lite_driver] [READ ] ADDR=0x00000488 RDATA=0x00000000 RRESP=AXI_OKAY
# UVM_INFO ../tb/driver/axi4lite_driver.sv(162) @ 14145000: uvm_test_top.env.agent.drv [axi4lite_driver] [WRITE] ADDR=0x00000888 DATA=0x0000d139 WSTRB=4'b1101 BRESP=AXI_OKAY
# UVM_INFO ../tb/driver/axi4lite_driver.sv(218) @ 14195000: uvm_test_top.env.agent.drv [axi4lite_driver] [READ ] ADDR=0x00000140 RDATA=0x00000000 RRESP=AXI_OKAY
# UVM_INFO ../tb/driver/axi4lite_driver.sv(218) @ 14235000: uvm_test_top.env.agent.drv [axi4lite_driver] [READ ] ADDR=0x00000af0 RDATA=0x00003b00 RRESP=AXI_OKAY
# UVM_INFO ../tb/driver/axi4lite_driver.sv(162) @ 14295000: uvm_test_top.env.agent.drv [axi4lite_driver] [WRITE] ADDR=0x000000e4 DATA=0x0000015f WSTRB=4'b1001 BRESP=AXI_OKAY
# UVM_INFO ../tb/driver/axi4lite_driver.sv(218) @ 14345000: uvm_test_top.env.agent.drv [axi4lite_driver] [READ ] ADDR=0x00000fe0 RDATA=0x00000000 RRESP=AXI_OKAY
# UVM_INFO ../tb/driver/axi4lite_driver.sv(162) @ 14405000: uvm_test_top.env.agent.drv [axi4lite_driver] [WRITE] ADDR=0x000009b4 DATA=0x0000c214 WSTRB=4'b1111 BRESP=AXI_OKAY
# UVM_INFO ../tb/driver/axi4lite_driver.sv(162) @ 14465000: uvm_test_top.env.agent.drv [axi4lite_driver] [WRITE] ADDR=0x000005ec DATA=0x00005075 WSTRB=4'b0100 BRESP=AXI_OKAY
# UVM_INFO ../tb/driver/axi4lite_driver.sv(218) @ 14505000: uvm_test_top.env.agent.drv [axi4lite_driver] [READ ] ADDR=0x000002d4 RDATA=0x00000000 RRESP=AXI_OKAY
# UVM_INFO ../tb/driver/axi4lite_driver.sv(218) @ 14545000: uvm_test_top.env.agent.drv [axi4lite_driver] [READ ] ADDR=0x00000dd0 RDATA=0x00000000 RRESP=AXI_OKAY
# UVM_INFO ../tb/driver/axi4lite_driver.sv(218) @ 14585000: uvm_test_top.env.agent.drv [axi4lite_driver] [READ ] ADDR=0x00000740 RDATA=0x00000000 RRESP=AXI_OKAY
# UVM_INFO ../tb/driver/axi4lite_driver.sv(162) @ 14645000: uvm_test_top.env.agent.drv [axi4lite_driver] [WRITE] ADDR=0x00000758 DATA=0x00000ccf WSTRB=4'b1010 BRESP=AXI_OKAY
# UVM_INFO ../tb/driver/axi4lite_driver.sv(218) @ 14695000: uvm_test_top.env.agent.drv [axi4lite_driver] [READ ] ADDR=0x00000280 RDATA=0x00000000 RRESP=AXI_OKAY
# UVM_INFO ../tb/driver/axi4lite_driver.sv(162) @ 14745000: uvm_test_top.env.agent.drv [axi4lite_driver] [WRITE] ADDR=0x00000700 DATA=0x000069de WSTRB=4'b0010 BRESP=AXI_OKAY
# UVM_INFO ../tb/driver/axi4lite_driver.sv(162) @ 14795000: uvm_test_top.env.agent.drv [axi4lite_driver] [WRITE] ADDR=0x000000e0 DATA=0x0000abd5 WSTRB=4'b1101 BRESP=AXI_OKAY
# UVM_INFO ../tb/driver/axi4lite_driver.sv(162) @ 14855000: uvm_test_top.env.agent.drv [axi4lite_driver] [WRITE] ADDR=0x00000d38 DATA=0x00006b54 WSTRB=4'b0111 BRESP=AXI_OKAY
# UVM_INFO ../tb/sequence/axi4lite_sequences.sv(270) @ 14855000: uvm_test_top.env.agent.seqr@@seq [tc015_stress_seq] Stress: 300/1000 transactions sent
# UVM_INFO ../tb/driver/axi4lite_driver.sv(162) @ 14905000: uvm_test_top.env.agent.drv [axi4lite_driver] [WRITE] ADDR=0x00000ee0 DATA=0x00003de4 WSTRB=4'b0111 BRESP=AXI_OKAY
# UVM_INFO ../tb/driver/axi4lite_driver.sv(162) @ 14955000: uvm_test_top.env.agent.drv [axi4lite_driver] [WRITE] ADDR=0x00000f60 DATA=0x00002fef WSTRB=4'b1010 BRESP=AXI_OKAY
# UVM_INFO ../tb/driver/axi4lite_driver.sv(218) @ 14995000: uvm_test_top.env.agent.drv [axi4lite_driver] [READ ] ADDR=0x000001e0 RDATA=0x00000000 RRESP=AXI_OKAY
# UVM_INFO ../tb/driver/axi4lite_driver.sv(218) @ 15035000: uvm_test_top.env.agent.drv [axi4lite_driver] [READ ] ADDR=0x00000b84 RDATA=0x00000000 RRESP=AXI_OKAY
# UVM_INFO ../tb/driver/axi4lite_driver.sv(162) @ 15095000: uvm_test_top.env.agent.drv [axi4lite_driver] [WRITE] ADDR=0x00000808 DATA=0x0000ceeb WSTRB=4'b1011 BRESP=AXI_OKAY
# UVM_INFO ../tb/driver/axi4lite_driver.sv(218) @ 15135000: uvm_test_top.env.agent.drv [axi4lite_driver] [READ ] ADDR=0x000000d0 RDATA=0x00000000 RRESP=AXI_OKAY
# UVM_INFO ../tb/driver/axi4lite_driver.sv(218) @ 15175000: uvm_test_top.env.agent.drv [axi4lite_driver] [READ ] ADDR=0x00000a30 RDATA=0x00000000 RRESP=AXI_OKAY
# UVM_INFO ../tb/driver/axi4lite_driver.sv(162) @ 15225000: uvm_test_top.env.agent.drv [axi4lite_driver] [WRITE] ADDR=0x00000e38 DATA=0x00003660 WSTRB=4'b1011 BRESP=AXI_OKAY
# UVM_INFO ../tb/driver/axi4lite_driver.sv(218) @ 15265000: uvm_test_top.env.agent.drv [axi4lite_driver] [READ ] ADDR=0x00000d6c RDATA=0x00000000 RRESP=AXI_OKAY
# UVM_INFO ../tb/driver/axi4lite_driver.sv(162) @ 15325000: uvm_test_top.env.agent.drv [axi4lite_driver] [WRITE] ADDR=0x00000e40 DATA=0x00005c4d WSTRB=4'b1011 BRESP=AXI_OKAY
# UVM_INFO ../tb/driver/axi4lite_driver.sv(162) @ 15375000: uvm_test_top.env.agent.drv [axi4lite_driver] [WRITE] ADDR=0x000001cc DATA=0x0000f3d1 WSTRB=4'b0001 BRESP=AXI_OKAY
# UVM_INFO ../tb/driver/axi4lite_driver.sv(162) @ 15425000: uvm_test_top.env.agent.drv [axi4lite_driver] [WRITE] ADDR=0x00000d44 DATA=0x0000c2ca WSTRB=4'b0001 BRESP=AXI_OKAY
# UVM_INFO ../tb/driver/axi4lite_driver.sv(218) @ 15465000: uvm_test_top.env.agent.drv [axi4lite_driver] [READ ] ADDR=0x000000e4 RDATA=0x0000005f RRESP=AXI_OKAY
# UVM_INFO ../tb/driver/axi4lite_driver.sv(218) @ 15515000: uvm_test_top.env.agent.drv [axi4lite_driver] [READ ] ADDR=0x00000d54 RDATA=0x00000000 RRESP=AXI_OKAY
# UVM_INFO ../tb/driver/axi4lite_driver.sv(162) @ 15565000: uvm_test_top.env.agent.drv [axi4lite_driver] [WRITE] ADDR=0x00000b38 DATA=0x00002cd4 WSTRB=4'b1101 BRESP=AXI_OKAY
# UVM_INFO ../tb/driver/axi4lite_driver.sv(162) @ 15615000: uvm_test_top.env.agent.drv [axi4lite_driver] [WRITE] ADDR=0x00000290 DATA=0x00000a98 WSTRB=4'b0010 BRESP=AXI_OKAY
# UVM_INFO ../tb/driver/axi4lite_driver.sv(218) @ 15655000: uvm_test_top.env.agent.drv [axi4lite_driver] [READ ] ADDR=0x00000a34 RDATA=0x00000000 RRESP=AXI_OKAY
# UVM_INFO ../tb/driver/axi4lite_driver.sv(162) @ 15705000: uvm_test_top.env.agent.drv [axi4lite_driver] [WRITE] ADDR=0x00000948 DATA=0x00001a22 WSTRB=4'b1110 BRESP=AXI_OKAY
# UVM_INFO ../tb/driver/axi4lite_driver.sv(162) @ 15755000: uvm_test_top.env.agent.drv [axi4lite_driver] [WRITE] ADDR=0x000002fc DATA=0x0000367a WSTRB=4'b0101 BRESP=AXI_OKAY
# UVM_INFO ../tb/driver/axi4lite_driver.sv(218) @ 15795000: uvm_test_top.env.agent.drv [axi4lite_driver] [READ ] ADDR=0x00000d9c RDATA=0x00000000 RRESP=AXI_OKAY
# UVM_INFO ../tb/driver/axi4lite_driver.sv(162) @ 15845000: uvm_test_top.env.agent.drv [axi4lite_driver] [WRITE] ADDR=0x000005b8 DATA=0x00007d21 WSTRB=4'b1010 BRESP=AXI_OKAY
# UVM_INFO ../tb/driver/axi4lite_driver.sv(162) @ 15895000: uvm_test_top.env.agent.drv [axi4lite_driver] [WRITE] ADDR=0x000001d0 DATA=0x0000538f WSTRB=4'b1101 BRESP=AXI_OKAY
# UVM_INFO ../tb/driver/axi4lite_driver.sv(162) @ 15945000: uvm_test_top.env.agent.drv [axi4lite_driver] [WRITE] ADDR=0x000007a4 DATA=0x00006c17 WSTRB=4'b1101 BRESP=AXI_OKAY
# UVM_INFO ../tb/driver/axi4lite_driver.sv(218) @ 15995000: uvm_test_top.env.agent.drv [axi4lite_driver] [READ ] ADDR=0x00000984 RDATA=0x00000000 RRESP=AXI_OKAY
# UVM_INFO ../tb/driver/axi4lite_driver.sv(162) @ 16055000: uvm_test_top.env.agent.drv [axi4lite_driver] [WRITE] ADDR=0x00000cc8 DATA=0x0000399d WSTRB=4'b1000 BRESP=AXI_OKAY
# UVM_INFO ../tb/driver/axi4lite_driver.sv(218) @ 16095000: uvm_test_top.env.agent.drv [axi4lite_driver] [READ ] ADDR=0x00000574 RDATA=0x00008baa RRESP=AXI_OKAY
# UVM_INFO ../tb/driver/axi4lite_driver.sv(218) @ 16145000: uvm_test_top.env.agent.drv [axi4lite_driver] [READ ] ADDR=0x0000027c RDATA=0x00000000 RRESP=AXI_OKAY
# UVM_INFO ../tb/driver/axi4lite_driver.sv(218) @ 16185000: uvm_test_top.env.agent.drv [axi4lite_driver] [READ ] ADDR=0x0000063c RDATA=0x00000000 RRESP=AXI_OKAY
# UVM_INFO ../tb/driver/axi4lite_driver.sv(162) @ 16245000: uvm_test_top.env.agent.drv [axi4lite_driver] [WRITE] ADDR=0x000006b4 DATA=0x0000a4f0 WSTRB=4'b1001 BRESP=AXI_OKAY
# UVM_INFO ../tb/driver/axi4lite_driver.sv(218) @ 16285000: uvm_test_top.env.agent.drv [axi4lite_driver] [READ ] ADDR=0x00000cac RDATA=0x000019ee RRESP=AXI_OKAY
# UVM_INFO ../tb/driver/axi4lite_driver.sv(162) @ 16335000: uvm_test_top.env.agent.drv [axi4lite_driver] [WRITE] ADDR=0x00000250 DATA=0x0000f82e WSTRB=4'b1110 BRESP=AXI_OKAY
# UVM_INFO ../tb/driver/axi4lite_driver.sv(162) @ 16385000: uvm_test_top.env.agent.drv [axi4lite_driver] [WRITE] ADDR=0x00000fa4 DATA=0x00007686 WSTRB=4'b0010 BRESP=AXI_OKAY
# UVM_INFO ../tb/driver/axi4lite_driver.sv(162) @ 16435000: uvm_test_top.env.agent.drv [axi4lite_driver] [WRITE] ADDR=0x00000640 DATA=0x00002d08 WSTRB=4'b1111 BRESP=AXI_OKAY
# UVM_INFO ../tb/driver/axi4lite_driver.sv(218) @ 16475000: uvm_test_top.env.agent.drv [axi4lite_driver] [READ ] ADDR=0x00000800 RDATA=0x0000de00 RRESP=AXI_OKAY
# UVM_INFO ../tb/driver/axi4lite_driver.sv(218) @ 16515000: uvm_test_top.env.agent.drv [axi4lite_driver] [READ ] ADDR=0x00000998 RDATA=0x00000075 RRESP=AXI_OKAY
# UVM_INFO ../tb/driver/axi4lite_driver.sv(218) @ 16555000: uvm_test_top.env.agent.drv [axi4lite_driver] [READ ] ADDR=0x00000408 RDATA=0x00000000 RRESP=AXI_OKAY
# UVM_INFO ../tb/driver/axi4lite_driver.sv(162) @ 16605000: uvm_test_top.env.agent.drv [axi4lite_driver] [WRITE] ADDR=0x0000040c DATA=0x0000a439 WSTRB=4'b0101 BRESP=AXI_OKAY
# UVM_INFO ../tb/driver/axi4lite_driver.sv(162) @ 16655000: uvm_test_top.env.agent.drv [axi4lite_driver] [WRITE] ADDR=0x00000b18 DATA=0x0000915c WSTRB=4'b0011 BRESP=AXI_OKAY
# UVM_INFO ../tb/driver/axi4lite_driver.sv(218) @ 16695000: uvm_test_top.env.agent.drv [axi4lite_driver] [READ ] ADDR=0x000008a8 RDATA=0x00000000 RRESP=AXI_OKAY
# UVM_INFO ../tb/driver/axi4lite_driver.sv(218) @ 16745000: uvm_test_top.env.agent.drv [axi4lite_driver] [READ ] ADDR=0x00000174 RDATA=0x00000000 RRESP=AXI_OKAY
# UVM_INFO ../tb/driver/axi4lite_driver.sv(218) @ 16785000: uvm_test_top.env.agent.drv [axi4lite_driver] [READ ] ADDR=0x000009fc RDATA=0x0000d711 RRESP=AXI_OKAY
# UVM_INFO ../tb/driver/axi4lite_driver.sv(162) @ 16835000: uvm_test_top.env.agent.drv [axi4lite_driver] [WRITE] ADDR=0x0000000c DATA=0x00006bfb WSTRB=4'b0101 BRESP=AXI_OKAY
# UVM_INFO ../tb/driver/axi4lite_driver.sv(162) @ 16885000: uvm_test_top.env.agent.drv [axi4lite_driver] [WRITE] ADDR=0x00000280 DATA=0x00008303 WSTRB=4'b0111 BRESP=AXI_OKAY
# UVM_INFO ../tb/driver/axi4lite_driver.sv(162) @ 16945000: uvm_test_top.env.agent.drv [axi4lite_driver] [WRITE] ADDR=0x00000488 DATA=0x0000d2f0 WSTRB=4'b0010 BRESP=AXI_OKAY
# UVM_INFO ../tb/driver/axi4lite_driver.sv(162) @ 16995000: uvm_test_top.env.agent.drv [axi4lite_driver] [WRITE] ADDR=0x00000b98 DATA=0x00001af5 WSTRB=4'b0010 BRESP=AXI_OKAY
# UVM_INFO ../tb/driver/axi4lite_driver.sv(162) @ 17055000: uvm_test_top.env.agent.drv [axi4lite_driver] [WRITE] ADDR=0x000005fc DATA=0x0000df98 WSTRB=4'b0101 BRESP=AXI_OKAY
# UVM_INFO ../tb/driver/axi4lite_driver.sv(218) @ 17105000: uvm_test_top.env.agent.drv [axi4lite_driver] [READ ] ADDR=0x00000864 RDATA=0x00000000 RRESP=AXI_OKAY
# UVM_INFO ../tb/driver/axi4lite_driver.sv(162) @ 17155000: uvm_test_top.env.agent.drv [axi4lite_driver] [WRITE] ADDR=0x00000ed0 DATA=0x0000e9d4 WSTRB=4'b0010 BRESP=AXI_OKAY
# UVM_INFO ../tb/driver/axi4lite_driver.sv(218) @ 17205000: uvm_test_top.env.agent.drv [axi4lite_driver] [READ ] ADDR=0x00000efc RDATA=0x00000000 RRESP=AXI_OKAY
# UVM_INFO ../tb/driver/axi4lite_driver.sv(218) @ 17245000: uvm_test_top.env.agent.drv [axi4lite_driver] [READ ] ADDR=0x00000bb0 RDATA=0x00000000 RRESP=AXI_OKAY
# UVM_INFO ../tb/driver/axi4lite_driver.sv(162) @ 17295000: uvm_test_top.env.agent.drv [axi4lite_driver] [WRITE] ADDR=0x0000087c DATA=0x0000310b WSTRB=4'b1101 BRESP=AXI_OKAY
# UVM_INFO ../tb/driver/axi4lite_driver.sv(218) @ 17335000: uvm_test_top.env.agent.drv [axi4lite_driver] [READ ] ADDR=0x000009d8 RDATA=0x00000000 RRESP=AXI_OKAY
# UVM_INFO ../tb/driver/axi4lite_driver.sv(218) @ 17385000: uvm_test_top.env.agent.drv [axi4lite_driver] [READ ] ADDR=0x000006e8 RDATA=0x00000000 RRESP=AXI_OKAY
# UVM_INFO ../tb/driver/axi4lite_driver.sv(218) @ 17425000: uvm_test_top.env.agent.drv [axi4lite_driver] [READ ] ADDR=0x00000304 RDATA=0x00000000 RRESP=AXI_OKAY
# UVM_INFO ../tb/driver/axi4lite_driver.sv(162) @ 17485000: uvm_test_top.env.agent.drv [axi4lite_driver] [WRITE] ADDR=0x00000f14 DATA=0x0000df7f WSTRB=4'b1010 BRESP=AXI_OKAY
# UVM_INFO ../tb/driver/axi4lite_driver.sv(162) @ 17545000: uvm_test_top.env.agent.drv [axi4lite_driver] [WRITE] ADDR=0x00000e48 DATA=0x00006642 WSTRB=4'b1101 BRESP=AXI_OKAY
# UVM_INFO ../tb/driver/axi4lite_driver.sv(218) @ 17585000: uvm_test_top.env.agent.drv [axi4lite_driver] [READ ] ADDR=0x00000404 RDATA=0x00000000 RRESP=AXI_OKAY
# UVM_INFO ../tb/driver/axi4lite_driver.sv(162) @ 17635000: uvm_test_top.env.agent.drv [axi4lite_driver] [WRITE] ADDR=0x00000558 DATA=0x0000ea4b WSTRB=4'b0100 BRESP=AXI_OKAY
# UVM_INFO ../tb/driver/axi4lite_driver.sv(162) @ 17685000: uvm_test_top.env.agent.drv [axi4lite_driver] [WRITE] ADDR=0x00000f14 DATA=0x00008b88 WSTRB=4'b0001 BRESP=AXI_OKAY
# UVM_INFO ../tb/driver/axi4lite_driver.sv(162) @ 17735000: uvm_test_top.env.agent.drv [axi4lite_driver] [WRITE] ADDR=0x00000db4 DATA=0x00004cbf WSTRB=4'b0010 BRESP=AXI_OKAY
# UVM_INFO ../tb/driver/axi4lite_driver.sv(162) @ 17795000: uvm_test_top.env.agent.drv [axi4lite_driver] [WRITE] ADDR=0x00000ce4 DATA=0x000057c3 WSTRB=4'b1010 BRESP=AXI_OKAY
# UVM_INFO ../tb/driver/axi4lite_driver.sv(162) @ 17845000: uvm_test_top.env.agent.drv [axi4lite_driver] [WRITE] ADDR=0x00000f64 DATA=0x000075ce WSTRB=4'b0101 BRESP=AXI_OKAY
# UVM_INFO ../tb/driver/axi4lite_driver.sv(162) @ 17895000: uvm_test_top.env.agent.drv [axi4lite_driver] [WRITE] ADDR=0x000008cc DATA=0x0000c8b4 WSTRB=4'b1111 BRESP=AXI_OKAY
# UVM_INFO ../tb/driver/axi4lite_driver.sv(218) @ 17935000: uvm_test_top.env.agent.drv [axi4lite_driver] [READ ] ADDR=0x00000dd8 RDATA=0x00000000 RRESP=AXI_OKAY
# UVM_INFO ../tb/driver/axi4lite_driver.sv(162) @ 17985000: uvm_test_top.env.agent.drv [axi4lite_driver] [WRITE] ADDR=0x00000960 DATA=0x000003f9 WSTRB=4'b0110 BRESP=AXI_OKAY
# UVM_INFO ../tb/driver/axi4lite_driver.sv(162) @ 18045000: uvm_test_top.env.agent.drv [axi4lite_driver] [WRITE] ADDR=0x00000fdc DATA=0x00003f5a WSTRB=4'b1110 BRESP=AXI_OKAY
# UVM_INFO ../tb/driver/axi4lite_driver.sv(162) @ 18095000: uvm_test_top.env.agent.drv [axi4lite_driver] [WRITE] ADDR=0x00000db8 DATA=0x0000e55b WSTRB=4'b1011 BRESP=AXI_OKAY
# UVM_INFO ../tb/driver/axi4lite_driver.sv(218) @ 18135000: uvm_test_top.env.agent.drv [axi4lite_driver] [READ ] ADDR=0x00000c30 RDATA=0x0000003d RRESP=AXI_OKAY
# UVM_INFO ../tb/driver/axi4lite_driver.sv(162) @ 18195000: uvm_test_top.env.agent.drv [axi4lite_driver] [WRITE] ADDR=0x0000052c DATA=0x0000d1e8 WSTRB=4'b1010 BRESP=AXI_OKAY
# UVM_INFO ../tb/driver/axi4lite_driver.sv(218) @ 18235000: uvm_test_top.env.agent.drv [axi4lite_driver] [READ ] ADDR=0x00000930 RDATA=0x00000000 RRESP=AXI_OKAY
# UVM_INFO ../tb/driver/axi4lite_driver.sv(218) @ 18275000: uvm_test_top.env.agent.drv [axi4lite_driver] [READ ] ADDR=0x00000fa8 RDATA=0x00000000 RRESP=AXI_OKAY
# UVM_INFO ../tb/driver/axi4lite_driver.sv(218) @ 18315000: uvm_test_top.env.agent.drv [axi4lite_driver] [READ ] ADDR=0x00000d34 RDATA=0x00000000 RRESP=AXI_OKAY
# UVM_INFO ../tb/driver/axi4lite_driver.sv(162) @ 18365000: uvm_test_top.env.agent.drv [axi4lite_driver] [WRITE] ADDR=0x000006e8 DATA=0x000014b1 WSTRB=4'b0101 BRESP=AXI_OKAY
# UVM_INFO ../tb/driver/axi4lite_driver.sv(162) @ 18415000: uvm_test_top.env.agent.drv [axi4lite_driver] [WRITE] ADDR=0x00000f8c DATA=0x0000a0f7 WSTRB=4'b1110 BRESP=AXI_OKAY
# UVM_INFO ../tb/driver/axi4lite_driver.sv(162) @ 18475000: uvm_test_top.env.agent.drv [axi4lite_driver] [WRITE] ADDR=0x0000052c DATA=0x000040fa WSTRB=4'b0110 BRESP=AXI_OKAY
# UVM_INFO ../tb/driver/axi4lite_driver.sv(162) @ 18525000: uvm_test_top.env.agent.drv [axi4lite_driver] [WRITE] ADDR=0x00000a08 DATA=0x00001224 WSTRB=4'b0010 BRESP=AXI_OKAY
# UVM_INFO ../tb/driver/axi4lite_driver.sv(162) @ 18575000: uvm_test_top.env.agent.drv [axi4lite_driver] [WRITE] ADDR=0x00000e10 DATA=0x0000833b WSTRB=4'b0010 BRESP=AXI_OKAY
# UVM_INFO ../tb/driver/axi4lite_driver.sv(218) @ 18625000: uvm_test_top.env.agent.drv [axi4lite_driver] [READ ] ADDR=0x00000d44 RDATA=0x000000ca RRESP=AXI_OKAY
# UVM_INFO ../tb/driver/axi4lite_driver.sv(218) @ 18665000: uvm_test_top.env.agent.drv [axi4lite_driver] [READ ] ADDR=0x00000bc0 RDATA=0x00000000 RRESP=AXI_OKAY
# UVM_INFO ../tb/driver/axi4lite_driver.sv(218) @ 18705000: uvm_test_top.env.agent.drv [axi4lite_driver] [READ ] ADDR=0x00000ce0 RDATA=0x00000000 RRESP=AXI_OKAY
# UVM_INFO ../tb/driver/axi4lite_driver.sv(162) @ 18765000: uvm_test_top.env.agent.drv [axi4lite_driver] [WRITE] ADDR=0x00000cdc DATA=0x00001d5b WSTRB=4'b1010 BRESP=AXI_OKAY
# UVM_INFO ../tb/driver/axi4lite_driver.sv(162) @ 18825000: uvm_test_top.env.agent.drv [axi4lite_driver] [WRITE] ADDR=0x00000758 DATA=0x00006fee WSTRB=4'b1010 BRESP=AXI_OKAY
# UVM_INFO ../tb/driver/axi4lite_driver.sv(218) @ 18865000: uvm_test_top.env.agent.drv [axi4lite_driver] [READ ] ADDR=0x000007e4 RDATA=0x00000000 RRESP=AXI_OKAY
# UVM_INFO ../tb/driver/axi4lite_driver.sv(162) @ 18915000: uvm_test_top.env.agent.drv [axi4lite_driver] [WRITE] ADDR=0x00000e98 DATA=0x000008bc WSTRB=4'b0111 BRESP=AXI_OKAY
# UVM_INFO ../tb/driver/axi4lite_driver.sv(162) @ 18965000: uvm_test_top.env.agent.drv [axi4lite_driver] [WRITE] ADDR=0x000002bc DATA=0x00009690 WSTRB=4'b0010 BRESP=AXI_OKAY
# UVM_INFO ../tb/driver/axi4lite_driver.sv(218) @ 19015000: uvm_test_top.env.agent.drv [axi4lite_driver] [READ ] ADDR=0x00000994 RDATA=0x000000d0 RRESP=AXI_OKAY
# UVM_INFO ../tb/driver/axi4lite_driver.sv(218) @ 19055000: uvm_test_top.env.agent.drv [axi4lite_driver] [READ ] ADDR=0x00000660 RDATA=0x00000000 RRESP=AXI_OKAY
# UVM_INFO ../tb/driver/axi4lite_driver.sv(162) @ 19105000: uvm_test_top.env.agent.drv [axi4lite_driver] [WRITE] ADDR=0x0000047c DATA=0x00004043 WSTRB=4'b1011 BRESP=AXI_OKAY
# UVM_INFO ../tb/driver/axi4lite_driver.sv(218) @ 19145000: uvm_test_top.env.agent.drv [axi4lite_driver] [READ ] ADDR=0x00000af4 RDATA=0x00000000 RRESP=AXI_OKAY
# UVM_INFO ../tb/driver/axi4lite_driver.sv(218) @ 19195000: uvm_test_top.env.agent.drv [axi4lite_driver] [READ ] ADDR=0x00000654 RDATA=0x00000000 RRESP=AXI_OKAY
# UVM_INFO ../tb/driver/axi4lite_driver.sv(162) @ 19245000: uvm_test_top.env.agent.drv [axi4lite_driver] [WRITE] ADDR=0x00000b98 DATA=0x00003e62 WSTRB=4'b0001 BRESP=AXI_OKAY
# UVM_INFO ../tb/driver/axi4lite_driver.sv(162) @ 19305000: uvm_test_top.env.agent.drv [axi4lite_driver] [WRITE] ADDR=0x00000594 DATA=0x00009c73 WSTRB=4'b0110 BRESP=AXI_OKAY
# UVM_INFO ../tb/driver/axi4lite_driver.sv(162) @ 19365000: uvm_test_top.env.agent.drv [axi4lite_driver] [WRITE] ADDR=0x00000cd8 DATA=0x0000a960 WSTRB=4'b0100 BRESP=AXI_OKAY
# UVM_INFO ../tb/driver/axi4lite_driver.sv(218) @ 19405000: uvm_test_top.env.agent.drv [axi4lite_driver] [READ ] ADDR=0x000005b8 RDATA=0x00007d00 RRESP=AXI_OKAY
# UVM_INFO ../tb/driver/axi4lite_driver.sv(162) @ 19455000: uvm_test_top.env.agent.drv [axi4lite_driver] [WRITE] ADDR=0x00000cc0 DATA=0x0000c090 WSTRB=4'b1010 BRESP=AXI_OKAY
# UVM_INFO ../tb/driver/axi4lite_driver.sv(218) @ 19505000: uvm_test_top.env.agent.drv [axi4lite_driver] [READ ] ADDR=0x00000454 RDATA=0x00000000 RRESP=AXI_OKAY
# UVM_INFO ../tb/driver/axi4lite_driver.sv(218) @ 19545000: uvm_test_top.env.agent.drv [axi4lite_driver] [READ ] ADDR=0x00000f50 RDATA=0x00000000 RRESP=AXI_OKAY
# UVM_INFO ../tb/driver/axi4lite_driver.sv(218) @ 19595000: uvm_test_top.env.agent.drv [axi4lite_driver] [READ ] ADDR=0x00000674 RDATA=0x00000000 RRESP=AXI_OKAY
# UVM_INFO ../tb/driver/axi4lite_driver.sv(162) @ 19645000: uvm_test_top.env.agent.drv [axi4lite_driver] [WRITE] ADDR=0x00000cd8 DATA=0x0000a6e2 WSTRB=4'b0010 BRESP=AXI_OKAY
# UVM_INFO ../tb/driver/axi4lite_driver.sv(162) @ 19695000: uvm_test_top.env.agent.drv [axi4lite_driver] [WRITE] ADDR=0x0000075c DATA=0x000096de WSTRB=4'b1101 BRESP=AXI_OKAY
# UVM_INFO ../tb/sequence/axi4lite_sequences.sv(270) @ 19695000: uvm_test_top.env.agent.seqr@@seq [tc015_stress_seq] Stress: 400/1000 transactions sent
# UVM_INFO ../tb/driver/axi4lite_driver.sv(162) @ 19745000: uvm_test_top.env.agent.drv [axi4lite_driver] [WRITE] ADDR=0x00000e14 DATA=0x000064ea WSTRB=4'b0100 BRESP=AXI_OKAY
# UVM_INFO ../tb/driver/axi4lite_driver.sv(162) @ 19805000: uvm_test_top.env.agent.drv [axi4lite_driver] [WRITE] ADDR=0x0000028c DATA=0x0000b0b2 WSTRB=4'b1001 BRESP=AXI_OKAY
# UVM_INFO ../tb/driver/axi4lite_driver.sv(162) @ 19865000: uvm_test_top.env.agent.drv [axi4lite_driver] [WRITE] ADDR=0x00000ad0 DATA=0x00002faf WSTRB=4'b0111 BRESP=AXI_OKAY
# UVM_INFO ../tb/driver/axi4lite_driver.sv(162) @ 19925000: uvm_test_top.env.agent.drv [axi4lite_driver] [WRITE] ADDR=0x00000c70 DATA=0x0000f5e2 WSTRB=4'b0110 BRESP=AXI_OKAY
# UVM_INFO ../tb/driver/axi4lite_driver.sv(218) @ 19975000: uvm_test_top.env.agent.drv [axi4lite_driver] [READ ] ADDR=0x00000a68 RDATA=0x00000000 RRESP=AXI_OKAY
# UVM_INFO ../tb/driver/axi4lite_driver.sv(162) @ 20025000: uvm_test_top.env.agent.drv [axi4lite_driver] [WRITE] ADDR=0x000009c4 DATA=0x0000280e WSTRB=4'b1100 BRESP=AXI_OKAY
# UVM_INFO ../tb/driver/axi4lite_driver.sv(162) @ 20075000: uvm_test_top.env.agent.drv [axi4lite_driver] [WRITE] ADDR=0x00000620 DATA=0x000009ff WSTRB=4'b1110 BRESP=AXI_OKAY
# UVM_INFO ../tb/driver/axi4lite_driver.sv(162) @ 20125000: uvm_test_top.env.agent.drv [axi4lite_driver] [WRITE] ADDR=0x00000308 DATA=0x00002f3c WSTRB=4'b1010 BRESP=AXI_OKAY
# UVM_INFO ../tb/driver/axi4lite_driver.sv(218) @ 20165000: uvm_test_top.env.agent.drv [axi4lite_driver] [READ ] ADDR=0x0000074c RDATA=0x0000755a RRESP=AXI_OKAY
# UVM_INFO ../tb/driver/axi4lite_driver.sv(218) @ 20215000: uvm_test_top.env.agent.drv [axi4lite_driver] [READ ] ADDR=0x000008dc RDATA=0x00000000 RRESP=AXI_OKAY
# UVM_INFO ../tb/driver/axi4lite_driver.sv(218) @ 20255000: uvm_test_top.env.agent.drv [axi4lite_driver] [READ ] ADDR=0x00000f8c RDATA=0x0000a000 RRESP=AXI_OKAY
# UVM_INFO ../tb/driver/axi4lite_driver.sv(218) @ 20295000: uvm_test_top.env.agent.drv [axi4lite_driver] [READ ] ADDR=0x000008dc RDATA=0x00000000 RRESP=AXI_OKAY
# UVM_INFO ../tb/driver/axi4lite_driver.sv(218) @ 20345000: uvm_test_top.env.agent.drv [axi4lite_driver] [READ ] ADDR=0x00000a04 RDATA=0x00000000 RRESP=AXI_OKAY
# UVM_INFO ../tb/driver/axi4lite_driver.sv(162) @ 20395000: uvm_test_top.env.agent.drv [axi4lite_driver] [WRITE] ADDR=0x0000054c DATA=0x00004083 WSTRB=4'b0010 BRESP=AXI_OKAY
# UVM_INFO ../tb/driver/axi4lite_driver.sv(218) @ 20435000: uvm_test_top.env.agent.drv [axi4lite_driver] [READ ] ADDR=0x00000640 RDATA=0x00002d08 RRESP=AXI_OKAY
# UVM_INFO ../tb/driver/axi4lite_driver.sv(218) @ 20475000: uvm_test_top.env.agent.drv [axi4lite_driver] [READ ] ADDR=0x0000011c RDATA=0x000065f5 RRESP=AXI_OKAY
# UVM_INFO ../tb/driver/axi4lite_driver.sv(218) @ 20515000: uvm_test_top.env.agent.drv [axi4lite_driver] [READ ] ADDR=0x00000384 RDATA=0x00000000 RRESP=AXI_OKAY
# UVM_INFO ../tb/driver/axi4lite_driver.sv(162) @ 20565000: uvm_test_top.env.agent.drv [axi4lite_driver] [WRITE] ADDR=0x00000c4c DATA=0x00001069 WSTRB=4'b1110 BRESP=AXI_OKAY
# UVM_INFO ../tb/driver/axi4lite_driver.sv(218) @ 20615000: uvm_test_top.env.agent.drv [axi4lite_driver] [READ ] ADDR=0x000007e8 RDATA=0x00000000 RRESP=AXI_OKAY
# UVM_INFO ../tb/driver/axi4lite_driver.sv(162) @ 20665000: uvm_test_top.env.agent.drv [axi4lite_driver] [WRITE] ADDR=0x00000284 DATA=0x000010d7 WSTRB=4'b0011 BRESP=AXI_OKAY
# UVM_INFO ../tb/driver/axi4lite_driver.sv(162) @ 20715000: uvm_test_top.env.agent.drv [axi4lite_driver] [WRITE] ADDR=0x00000438 DATA=0x00005393 WSTRB=4'b1100 BRESP=AXI_OKAY
# UVM_INFO ../tb/driver/axi4lite_driver.sv(218) @ 20755000: uvm_test_top.env.agent.drv [axi4lite_driver] [READ ] ADDR=0x00000690 RDATA=0x00000000 RRESP=AXI_OKAY
# UVM_INFO ../tb/driver/axi4lite_driver.sv(218) @ 20795000: uvm_test_top.env.agent.drv [axi4lite_driver] [READ ] ADDR=0x000006bc RDATA=0x00000000 RRESP=AXI_OKAY
# UVM_INFO ../tb/driver/axi4lite_driver.sv(218) @ 20835000: uvm_test_top.env.agent.drv [axi4lite_driver] [READ ] ADDR=0x00000888 RDATA=0x00000039 RRESP=AXI_OKAY
# UVM_INFO ../tb/driver/axi4lite_driver.sv(218) @ 20885000: uvm_test_top.env.agent.drv [axi4lite_driver] [READ ] ADDR=0x000003d8 RDATA=0x00000000 RRESP=AXI_OKAY
# UVM_INFO ../tb/driver/axi4lite_driver.sv(218) @ 20925000: uvm_test_top.env.agent.drv [axi4lite_driver] [READ ] ADDR=0x0000062c RDATA=0x00000000 RRESP=AXI_OKAY
# UVM_INFO ../tb/driver/axi4lite_driver.sv(218) @ 20965000: uvm_test_top.env.agent.drv [axi4lite_driver] [READ ] ADDR=0x000003f4 RDATA=0x00000000 RRESP=AXI_OKAY
# UVM_INFO ../tb/driver/axi4lite_driver.sv(218) @ 21015000: uvm_test_top.env.agent.drv [axi4lite_driver] [READ ] ADDR=0x00000ef8 RDATA=0x00000000 RRESP=AXI_OKAY
# UVM_INFO ../tb/driver/axi4lite_driver.sv(218) @ 21055000: uvm_test_top.env.agent.drv [axi4lite_driver] [READ ] ADDR=0x000001a8 RDATA=0x00000000 RRESP=AXI_OKAY
# UVM_INFO ../tb/driver/axi4lite_driver.sv(162) @ 21115000: uvm_test_top.env.agent.drv [axi4lite_driver] [WRITE] ADDR=0x0000039c DATA=0x0000b23a WSTRB=4'b1010 BRESP=AXI_OKAY
# UVM_INFO ../tb/driver/axi4lite_driver.sv(162) @ 21175000: uvm_test_top.env.agent.drv [axi4lite_driver] [WRITE] ADDR=0x00000b04 DATA=0x000047a1 WSTRB=4'b0110 BRESP=AXI_OKAY
# UVM_INFO ../tb/driver/axi4lite_driver.sv(162) @ 21225000: uvm_test_top.env.agent.drv [axi4lite_driver] [WRITE] ADDR=0x00000c0c DATA=0x0000a446 WSTRB=4'b0100 BRESP=AXI_OKAY
# UVM_INFO ../tb/driver/axi4lite_driver.sv(162) @ 21285000: uvm_test_top.env.agent.drv [axi4lite_driver] [WRITE] ADDR=0x000007cc DATA=0x00003cbe WSTRB=4'b0101 BRESP=AXI_OKAY
# UVM_INFO ../tb/driver/axi4lite_driver.sv(218) @ 21325000: uvm_test_top.env.agent.drv [axi4lite_driver] [READ ] ADDR=0x000002b4 RDATA=0x00000000 RRESP=AXI_OKAY
# UVM_INFO ../tb/driver/axi4lite_driver.sv(218) @ 21365000: uvm_test_top.env.agent.drv [axi4lite_driver] [READ ] ADDR=0x00000100 RDATA=0x00000000 RRESP=AXI_OKAY
# UVM_INFO ../tb/driver/axi4lite_driver.sv(162) @ 21415000: uvm_test_top.env.agent.drv [axi4lite_driver] [WRITE] ADDR=0x00000edc DATA=0x00005b4a WSTRB=4'b0111 BRESP=AXI_OKAY
# UVM_INFO ../tb/driver/axi4lite_driver.sv(218) @ 21455000: uvm_test_top.env.agent.drv [axi4lite_driver] [READ ] ADDR=0x0000001c RDATA=0x0000946d RRESP=AXI_OKAY
# UVM_INFO ../tb/driver/axi4lite_driver.sv(162) @ 21505000: uvm_test_top.env.agent.drv [axi4lite_driver] [WRITE] ADDR=0x00000800 DATA=0x00009984 WSTRB=4'b1001 BRESP=AXI_OKAY
# UVM_INFO ../tb/driver/axi4lite_driver.sv(162) @ 21555000: uvm_test_top.env.agent.drv [axi4lite_driver] [WRITE] ADDR=0x00000c48 DATA=0x0000dc63 WSTRB=4'b0111 BRESP=AXI_OKAY
# UVM_INFO ../tb/driver/axi4lite_driver.sv(218) @ 21595000: uvm_test_top.env.agent.drv [axi4lite_driver] [READ ] ADDR=0x00000248 RDATA=0x00000000 RRESP=AXI_OKAY
# UVM_INFO ../tb/driver/axi4lite_driver.sv(218) @ 21635000: uvm_test_top.env.agent.drv [axi4lite_driver] [READ ] ADDR=0x00000abc RDATA=0x00000000 RRESP=AXI_OKAY
# UVM_INFO ../tb/driver/axi4lite_driver.sv(162) @ 21685000: uvm_test_top.env.agent.drv [axi4lite_driver] [WRITE] ADDR=0x000001c0 DATA=0x000028b7 WSTRB=4'b1000 BRESP=AXI_OKAY
# UVM_INFO ../tb/driver/axi4lite_driver.sv(162) @ 21745000: uvm_test_top.env.agent.drv [axi4lite_driver] [WRITE] ADDR=0x000005a8 DATA=0x00008a86 WSTRB=4'b1100 BRESP=AXI_OKAY
# UVM_INFO ../tb/driver/axi4lite_driver.sv(218) @ 21785000: uvm_test_top.env.agent.drv [axi4lite_driver] [READ ] ADDR=0x00000744 RDATA=0x00000000 RRESP=AXI_OKAY
# UVM_INFO ../tb/driver/axi4lite_driver.sv(162) @ 21835000: uvm_test_top.env.agent.drv [axi4lite_driver] [WRITE] ADDR=0x000002ec DATA=0x000048b6 WSTRB=4'b0101 BRESP=AXI_OKAY
# UVM_INFO ../tb/driver/axi4lite_driver.sv(218) @ 21875000: uvm_test_top.env.agent.drv [axi4lite_driver] [READ ] ADDR=0x0000047c RDATA=0x00004043 RRESP=AXI_OKAY
# UVM_INFO ../tb/driver/axi4lite_driver.sv(218) @ 21915000: uvm_test_top.env.agent.drv [axi4lite_driver] [READ ] ADDR=0x00000098 RDATA=0x00000000 RRESP=AXI_OKAY
# UVM_INFO ../tb/driver/axi4lite_driver.sv(162) @ 21965000: uvm_test_top.env.agent.drv [axi4lite_driver] [WRITE] ADDR=0x00000ef0 DATA=0x00007e2c WSTRB=4'b0011 BRESP=AXI_OKAY
# UVM_INFO ../tb/driver/axi4lite_driver.sv(162) @ 22015000: uvm_test_top.env.agent.drv [axi4lite_driver] [WRITE] ADDR=0x00000970 DATA=0x0000a45f WSTRB=4'b1001 BRESP=AXI_OKAY
# UVM_INFO ../tb/driver/axi4lite_driver.sv(218) @ 22055000: uvm_test_top.env.agent.drv [axi4lite_driver] [READ ] ADDR=0x000008fc RDATA=0x0000001c RRESP=AXI_OKAY
# UVM_INFO ../tb/driver/axi4lite_driver.sv(218) @ 22095000: uvm_test_top.env.agent.drv [axi4lite_driver] [READ ] ADDR=0x000005c8 RDATA=0x00000000 RRESP=AXI_OKAY
# UVM_INFO ../tb/driver/axi4lite_driver.sv(218) @ 22145000: uvm_test_top.env.agent.drv [axi4lite_driver] [READ ] ADDR=0x000009ec RDATA=0x00000000 RRESP=AXI_OKAY
# UVM_INFO ../tb/driver/axi4lite_driver.sv(162) @ 22195000: uvm_test_top.env.agent.drv [axi4lite_driver] [WRITE] ADDR=0x00000c94 DATA=0x00003eeb WSTRB=4'b1000 BRESP=AXI_OKAY
# UVM_INFO ../tb/driver/axi4lite_driver.sv(162) @ 22245000: uvm_test_top.env.agent.drv [axi4lite_driver] [WRITE] ADDR=0x00000e54 DATA=0x0000cf5d WSTRB=4'b1001 BRESP=AXI_OKAY
# UVM_INFO ../tb/driver/axi4lite_driver.sv(218) @ 22285000: uvm_test_top.env.agent.drv [axi4lite_driver] [READ ] ADDR=0x0000061c RDATA=0x00000000 RRESP=AXI_OKAY
# UVM_INFO ../tb/driver/axi4lite_driver.sv(162) @ 22335000: uvm_test_top.env.agent.drv [axi4lite_driver] [WRITE] ADDR=0x00000b30 DATA=0x0000de9a WSTRB=4'b0011 BRESP=AXI_OKAY
# UVM_INFO ../tb/driver/axi4lite_driver.sv(218) @ 22375000: uvm_test_top.env.agent.drv [axi4lite_driver] [READ ] ADDR=0x00000d9c RDATA=0x00000000 RRESP=AXI_OKAY
# UVM_INFO ../tb/driver/axi4lite_driver.sv(162) @ 22425000: uvm_test_top.env.agent.drv [axi4lite_driver] [WRITE] ADDR=0x00000614 DATA=0x00001ced WSTRB=4'b1110 BRESP=AXI_OKAY
# UVM_INFO ../tb/driver/axi4lite_driver.sv(162) @ 22475000: uvm_test_top.env.agent.drv [axi4lite_driver] [WRITE] ADDR=0x00000474 DATA=0x0000ac13 WSTRB=4'b0110 BRESP=AXI_OKAY
# UVM_INFO ../tb/driver/axi4lite_driver.sv(162) @ 22525000: uvm_test_top.env.agent.drv [axi4lite_driver] [WRITE] ADDR=0x0000009c DATA=0x000034db WSTRB=4'b0110 BRESP=AXI_OKAY
# UVM_INFO ../tb/driver/axi4lite_driver.sv(218) @ 22565000: uvm_test_top.env.agent.drv [axi4lite_driver] [READ ] ADDR=0x000007fc RDATA=0x00000000 RRESP=AXI_OKAY
# UVM_INFO ../tb/driver/axi4lite_driver.sv(218) @ 22605000: uvm_test_top.env.agent.drv [axi4lite_driver] [READ ] ADDR=0x000005c0 RDATA=0x00000000 RRESP=AXI_OKAY
# UVM_INFO ../tb/driver/axi4lite_driver.sv(162) @ 22665000: uvm_test_top.env.agent.drv [axi4lite_driver] [WRITE] ADDR=0x00000010 DATA=0x0000e704 WSTRB=4'b1110 BRESP=AXI_OKAY
# UVM_INFO ../tb/driver/axi4lite_driver.sv(162) @ 22715000: uvm_test_top.env.agent.drv [axi4lite_driver] [WRITE] ADDR=0x00000f80 DATA=0x00001f3f WSTRB=4'b1000 BRESP=AXI_OKAY
# UVM_INFO ../tb/driver/axi4lite_driver.sv(162) @ 22775000: uvm_test_top.env.agent.drv [axi4lite_driver] [WRITE] ADDR=0x00000d74 DATA=0x0000ce76 WSTRB=4'b0001 BRESP=AXI_OKAY
# UVM_INFO ../tb/driver/axi4lite_driver.sv(162) @ 22825000: uvm_test_top.env.agent.drv [axi4lite_driver] [WRITE] ADDR=0x00000e2c DATA=0x000077eb WSTRB=4'b1110 BRESP=AXI_OKAY
# UVM_INFO ../tb/driver/axi4lite_driver.sv(218) @ 22875000: uvm_test_top.env.agent.drv [axi4lite_driver] [READ ] ADDR=0x000001a8 RDATA=0x00000000 RRESP=AXI_OKAY
# UVM_INFO ../tb/driver/axi4lite_driver.sv(162) @ 22925000: uvm_test_top.env.agent.drv [axi4lite_driver] [WRITE] ADDR=0x000001a8 DATA=0x0000f630 WSTRB=4'b1000 BRESP=AXI_OKAY
# UVM_INFO ../tb/driver/axi4lite_driver.sv(218) @ 22965000: uvm_test_top.env.agent.drv [axi4lite_driver] [READ ] ADDR=0x00000a14 RDATA=0x00000000 RRESP=AXI_OKAY
# UVM_INFO ../tb/driver/axi4lite_driver.sv(162) @ 23015000: uvm_test_top.env.agent.drv [axi4lite_driver] [WRITE] ADDR=0x00000d5c DATA=0x0000b32d WSTRB=4'b0101 BRESP=AXI_OKAY
# UVM_INFO ../tb/driver/axi4lite_driver.sv(162) @ 23075000: uvm_test_top.env.agent.drv [axi4lite_driver] [WRITE] ADDR=0x00000704 DATA=0x00007826 WSTRB=4'b0110 BRESP=AXI_OKAY
# UVM_INFO ../tb/driver/axi4lite_driver.sv(162) @ 23125000: uvm_test_top.env.agent.drv [axi4lite_driver] [WRITE] ADDR=0x0000031c DATA=0x0000c936 WSTRB=4'b0011 BRESP=AXI_OKAY
# UVM_INFO ../tb/driver/axi4lite_driver.sv(218) @ 23165000: uvm_test_top.env.agent.drv [axi4lite_driver] [READ ] ADDR=0x00000230 RDATA=0x00000000 RRESP=AXI_OKAY
# UVM_INFO ../tb/driver/axi4lite_driver.sv(162) @ 23225000: uvm_test_top.env.agent.drv [axi4lite_driver] [WRITE] ADDR=0x00000798 DATA=0x0000e95b WSTRB=4'b0110 BRESP=AXI_OKAY
# UVM_INFO ../tb/driver/axi4lite_driver.sv(162) @ 23275000: uvm_test_top.env.agent.drv [axi4lite_driver] [WRITE] ADDR=0x00000cd0 DATA=0x0000e1c3 WSTRB=4'b0001 BRESP=AXI_OKAY
# UVM_INFO ../tb/driver/axi4lite_driver.sv(218) @ 23325000: uvm_test_top.env.agent.drv [axi4lite_driver] [READ ] ADDR=0x000009f4 RDATA=0x00000000 RRESP=AXI_OKAY
# UVM_INFO ../tb/driver/axi4lite_driver.sv(218) @ 23365000: uvm_test_top.env.agent.drv [axi4lite_driver] [READ ] ADDR=0x00000f08 RDATA=0x00000000 RRESP=AXI_OKAY
# UVM_INFO ../tb/driver/axi4lite_driver.sv(218) @ 23405000: uvm_test_top.env.agent.drv [axi4lite_driver] [READ ] ADDR=0x000000cc RDATA=0x00000000 RRESP=AXI_OKAY
# UVM_INFO ../tb/driver/axi4lite_driver.sv(218) @ 23445000: uvm_test_top.env.agent.drv [axi4lite_driver] [READ ] ADDR=0x00000f7c RDATA=0x00000000 RRESP=AXI_OKAY
# UVM_INFO ../tb/driver/axi4lite_driver.sv(218) @ 23485000: uvm_test_top.env.agent.drv [axi4lite_driver] [READ ] ADDR=0x00000900 RDATA=0x00000000 RRESP=AXI_OKAY
# UVM_INFO ../tb/driver/axi4lite_driver.sv(162) @ 23545000: uvm_test_top.env.agent.drv [axi4lite_driver] [WRITE] ADDR=0x00000cf0 DATA=0x000095c7 WSTRB=4'b1011 BRESP=AXI_OKAY
# UVM_INFO ../tb/driver/axi4lite_driver.sv(162) @ 23605000: uvm_test_top.env.agent.drv [axi4lite_driver] [WRITE] ADDR=0x00000a40 DATA=0x0000ce81 WSTRB=4'b0100 BRESP=AXI_OKAY
# UVM_INFO ../tb/driver/axi4lite_driver.sv(162) @ 23665000: uvm_test_top.env.agent.drv [axi4lite_driver] [WRITE] ADDR=0x00000048 DATA=0x0000b597 WSTRB=4'b1111 BRESP=AXI_OKAY
# UVM_INFO ../tb/driver/axi4lite_driver.sv(218) @ 23715000: uvm_test_top.env.agent.drv [axi4lite_driver] [READ ] ADDR=0x00000064 RDATA=0x00000000 RRESP=AXI_OKAY
# UVM_INFO ../tb/driver/axi4lite_driver.sv(218) @ 23755000: uvm_test_top.env.agent.drv [axi4lite_driver] [READ ] ADDR=0x00000538 RDATA=0x00000000 RRESP=AXI_OKAY
# UVM_INFO ../tb/driver/axi4lite_driver.sv(218) @ 23795000: uvm_test_top.env.agent.drv [axi4lite_driver] [READ ] ADDR=0x00000f28 RDATA=0x00000000 RRESP=AXI_OKAY
# UVM_INFO ../tb/driver/axi4lite_driver.sv(218) @ 23835000: uvm_test_top.env.agent.drv [axi4lite_driver] [READ ] ADDR=0x00000218 RDATA=0x00000000 RRESP=AXI_OKAY
# UVM_INFO ../tb/driver/axi4lite_driver.sv(218) @ 23875000: uvm_test_top.env.agent.drv [axi4lite_driver] [READ ] ADDR=0x000002ec RDATA=0x000000b6 RRESP=AXI_OKAY
# UVM_INFO ../tb/driver/axi4lite_driver.sv(218) @ 23915000: uvm_test_top.env.agent.drv [axi4lite_driver] [READ ] ADDR=0x00000670 RDATA=0x00000000 RRESP=AXI_OKAY
# UVM_INFO ../tb/driver/axi4lite_driver.sv(162) @ 23965000: uvm_test_top.env.agent.drv [axi4lite_driver] [WRITE] ADDR=0x00000a00 DATA=0x0000f617 WSTRB=4'b0010 BRESP=AXI_OKAY
# UVM_INFO ../tb/driver/axi4lite_driver.sv(218) @ 24015000: uvm_test_top.env.agent.drv [axi4lite_driver] [READ ] ADDR=0x00000a5c RDATA=0x00000000 RRESP=AXI_OKAY
# UVM_INFO ../tb/driver/axi4lite_driver.sv(162) @ 24065000: uvm_test_top.env.agent.drv [axi4lite_driver] [WRITE] ADDR=0x00000418 DATA=0x0000b95f WSTRB=4'b1001 BRESP=AXI_OKAY
# UVM_INFO ../tb/driver/axi4lite_driver.sv(218) @ 24105000: uvm_test_top.env.agent.drv [axi4lite_driver] [READ ] ADDR=0x000004b4 RDATA=0x00000000 RRESP=AXI_OKAY
# UVM_INFO ../tb/driver/axi4lite_driver.sv(218) @ 24145000: uvm_test_top.env.agent.drv [axi4lite_driver] [READ ] ADDR=0x00000234 RDATA=0x00003a99 RRESP=AXI_OKAY
# UVM_INFO ../tb/driver/axi4lite_driver.sv(162) @ 24195000: uvm_test_top.env.agent.drv [axi4lite_driver] [WRITE] ADDR=0x00000f10 DATA=0x000044b2 WSTRB=4'b1110 BRESP=AXI_OKAY
# UVM_INFO ../tb/driver/axi4lite_driver.sv(218) @ 24235000: uvm_test_top.env.agent.drv [axi4lite_driver] [READ ] ADDR=0x00000494 RDATA=0x0000b500 RRESP=AXI_OKAY
# UVM_INFO ../tb/driver/axi4lite_driver.sv(218) @ 24285000: uvm_test_top.env.agent.drv [axi4lite_driver] [READ ] ADDR=0x000001a8 RDATA=0x00000000 RRESP=AXI_OKAY
# UVM_INFO ../tb/driver/axi4lite_driver.sv(162) @ 24335000: uvm_test_top.env.agent.drv [axi4lite_driver] [WRITE] ADDR=0x00000978 DATA=0x0000801b WSTRB=4'b1000 BRESP=AXI_OKAY
# UVM_INFO ../tb/driver/axi4lite_driver.sv(162) @ 24385000: uvm_test_top.env.agent.drv [axi4lite_driver] [WRITE] ADDR=0x00000400 DATA=0x00000cc4 WSTRB=4'b0001 BRESP=AXI_OKAY
# UVM_INFO ../tb/driver/axi4lite_driver.sv(162) @ 24445000: uvm_test_top.env.agent.drv [axi4lite_driver] [WRITE] ADDR=0x00000554 DATA=0x0000d4ce WSTRB=4'b1100 BRESP=AXI_OKAY
# UVM_INFO ../tb/sequence/axi4lite_sequences.sv(270) @ 24445000: uvm_test_top.env.agent.seqr@@seq [tc015_stress_seq] Stress: 500/1000 transactions sent
# UVM_INFO ../tb/driver/axi4lite_driver.sv(162) @ 24505000: uvm_test_top.env.agent.drv [axi4lite_driver] [WRITE] ADDR=0x00000a80 DATA=0x000038bc WSTRB=4'b1001 BRESP=AXI_OKAY
# UVM_INFO ../tb/driver/axi4lite_driver.sv(218) @ 24545000: uvm_test_top.env.agent.drv [axi4lite_driver] [READ ] ADDR=0x000003f0 RDATA=0x00000000 RRESP=AXI_OKAY
# UVM_INFO ../tb/driver/axi4lite_driver.sv(218) @ 24585000: uvm_test_top.env.agent.drv [axi4lite_driver] [READ ] ADDR=0x00000bc4 RDATA=0x00000000 RRESP=AXI_OKAY
# UVM_INFO ../tb/driver/axi4lite_driver.sv(162) @ 24635000: uvm_test_top.env.agent.drv [axi4lite_driver] [WRITE] ADDR=0x00000444 DATA=0x0000ad56 WSTRB=4'b1110 BRESP=AXI_OKAY
# UVM_INFO ../tb/driver/axi4lite_driver.sv(218) @ 24675000: uvm_test_top.env.agent.drv [axi4lite_driver] [READ ] ADDR=0x00000434 RDATA=0x00000000 RRESP=AXI_OKAY
# UVM_INFO ../tb/driver/axi4lite_driver.sv(162) @ 24735000: uvm_test_top.env.agent.drv [axi4lite_driver] [WRITE] ADDR=0x00000dc0 DATA=0x000009f6 WSTRB=4'b0100 BRESP=AXI_OKAY
# UVM_INFO ../tb/driver/axi4lite_driver.sv(162) @ 24785000: uvm_test_top.env.agent.drv [axi4lite_driver] [WRITE] ADDR=0x00000b48 DATA=0x000007d0 WSTRB=4'b0010 BRESP=AXI_OKAY
# UVM_INFO ../tb/driver/axi4lite_driver.sv(218) @ 24835000: uvm_test_top.env.agent.drv [axi4lite_driver] [READ ] ADDR=0x0000090c RDATA=0x00000000 RRESP=AXI_OKAY
# UVM_INFO ../tb/driver/axi4lite_driver.sv(162) @ 24885000: uvm_test_top.env.agent.drv [axi4lite_driver] [WRITE] ADDR=0x00000f04 DATA=0x0000a402 WSTRB=4'b1000 BRESP=AXI_OKAY
# UVM_INFO ../tb/driver/axi4lite_driver.sv(218) @ 24925000: uvm_test_top.env.agent.drv [axi4lite_driver] [READ ] ADDR=0x0000008c RDATA=0x00000000 RRESP=AXI_OKAY
# UVM_INFO ../tb/driver/axi4lite_driver.sv(218) @ 24965000: uvm_test_top.env.agent.drv [axi4lite_driver] [READ ] ADDR=0x000003a8 RDATA=0x00000000 RRESP=AXI_OKAY
# UVM_INFO ../tb/driver/axi4lite_driver.sv(162) @ 25015000: uvm_test_top.env.agent.drv [axi4lite_driver] [WRITE] ADDR=0x0000099c DATA=0x0000bc14 WSTRB=4'b0111 BRESP=AXI_OKAY
# UVM_INFO ../tb/driver/axi4lite_driver.sv(162) @ 25065000: uvm_test_top.env.agent.drv [axi4lite_driver] [WRITE] ADDR=0x000008b0 DATA=0x00005a0f WSTRB=4'b1011 BRESP=AXI_OKAY
# UVM_INFO ../tb/driver/axi4lite_driver.sv(218) @ 25105000: uvm_test_top.env.agent.drv [axi4lite_driver] [READ ] ADDR=0x00000974 RDATA=0x00000000 RRESP=AXI_OKAY
# UVM_INFO ../tb/driver/axi4lite_driver.sv(162) @ 25155000: uvm_test_top.env.agent.drv [axi4lite_driver] [WRITE] ADDR=0x00000348 DATA=0x0000ba45 WSTRB=4'b0101 BRESP=AXI_OKAY
# UVM_INFO ../tb/driver/axi4lite_driver.sv(162) @ 25205000: uvm_test_top.env.agent.drv [axi4lite_driver] [WRITE] ADDR=0x00000d88 DATA=0x000060b8 WSTRB=4'b1000 BRESP=AXI_OKAY
# UVM_INFO ../tb/driver/axi4lite_driver.sv(218) @ 25245000: uvm_test_top.env.agent.drv [axi4lite_driver] [READ ] ADDR=0x00000264 RDATA=0x00000000 RRESP=AXI_OKAY
# UVM_INFO ../tb/driver/axi4lite_driver.sv(218) @ 25295000: uvm_test_top.env.agent.drv [axi4lite_driver] [READ ] ADDR=0x000008ec RDATA=0x00000000 RRESP=AXI_OKAY
# UVM_INFO ../tb/driver/axi4lite_driver.sv(218) @ 25335000: uvm_test_top.env.agent.drv [axi4lite_driver] [READ ] ADDR=0x00000aec RDATA=0x00000000 RRESP=AXI_OKAY
# UVM_INFO ../tb/driver/axi4lite_driver.sv(162) @ 25385000: uvm_test_top.env.agent.drv [axi4lite_driver] [WRITE] ADDR=0x00000acc DATA=0x00002a2f WSTRB=4'b1101 BRESP=AXI_OKAY
# UVM_INFO ../tb/driver/axi4lite_driver.sv(218) @ 25425000: uvm_test_top.env.agent.drv [axi4lite_driver] [READ ] ADDR=0x00000700 RDATA=0x00006900 RRESP=AXI_OKAY
# UVM_INFO ../tb/driver/axi4lite_driver.sv(162) @ 25475000: uvm_test_top.env.agent.drv [axi4lite_driver] [WRITE] ADDR=0x000009f8 DATA=0x000090fa WSTRB=4'b1110 BRESP=AXI_OKAY
# UVM_INFO ../tb/driver/axi4lite_driver.sv(218) @ 25515000: uvm_test_top.env.agent.drv [axi4lite_driver] [READ ] ADDR=0x000006d8 RDATA=0x00000000 RRESP=AXI_OKAY
# UVM_INFO ../tb/driver/axi4lite_driver.sv(162) @ 25575000: uvm_test_top.env.agent.drv [axi4lite_driver] [WRITE] ADDR=0x000002f8 DATA=0x000044e4 WSTRB=4'b0011 BRESP=AXI_OKAY
# UVM_INFO ../tb/driver/axi4lite_driver.sv(218) @ 25625000: uvm_test_top.env.agent.drv [axi4lite_driver] [READ ] ADDR=0x00000b88 RDATA=0x00000000 RRESP=AXI_OKAY
# UVM_INFO ../tb/driver/axi4lite_driver.sv(162) @ 25675000: uvm_test_top.env.agent.drv [axi4lite_driver] [WRITE] ADDR=0x000000f0 DATA=0x00004761 WSTRB=4'b1111 BRESP=AXI_OKAY
# UVM_INFO ../tb/driver/axi4lite_driver.sv(162) @ 25725000: uvm_test_top.env.agent.drv [axi4lite_driver] [WRITE] ADDR=0x00000d7c DATA=0x00008ea7 WSTRB=4'b1110 BRESP=AXI_OKAY
# UVM_INFO ../tb/driver/axi4lite_driver.sv(218) @ 25765000: uvm_test_top.env.agent.drv [axi4lite_driver] [READ ] ADDR=0x000001c4 RDATA=0x00000000 RRESP=AXI_OKAY
# UVM_INFO ../tb/driver/axi4lite_driver.sv(218) @ 25815000: uvm_test_top.env.agent.drv [axi4lite_driver] [READ ] ADDR=0x00000dc4 RDATA=0x00000000 RRESP=AXI_OKAY
# UVM_INFO ../tb/driver/axi4lite_driver.sv(162) @ 25875000: uvm_test_top.env.agent.drv [axi4lite_driver] [WRITE] ADDR=0x00000ac0 DATA=0x000024a8 WSTRB=4'b1101 BRESP=AXI_OKAY
# UVM_INFO ../tb/driver/axi4lite_driver.sv(162) @ 25925000: uvm_test_top.env.agent.drv [axi4lite_driver] [WRITE] ADDR=0x00000ec8 DATA=0x0000059d WSTRB=4'b0101 BRESP=AXI_OKAY
# UVM_INFO ../tb/driver/axi4lite_driver.sv(218) @ 25965000: uvm_test_top.env.agent.drv [axi4lite_driver] [READ ] ADDR=0x000005ac RDATA=0x00000000 RRESP=AXI_OKAY
# UVM_INFO ../tb/driver/axi4lite_driver.sv(162) @ 26015000: uvm_test_top.env.agent.drv [axi4lite_driver] [WRITE] ADDR=0x00000604 DATA=0x000069dd WSTRB=4'b1111 BRESP=AXI_OKAY
# UVM_INFO ../tb/driver/axi4lite_driver.sv(162) @ 26065000: uvm_test_top.env.agent.drv [axi4lite_driver] [WRITE] ADDR=0x00000364 DATA=0x00006ab5 WSTRB=4'b1100 BRESP=AXI_OKAY
# UVM_INFO ../tb/driver/axi4lite_driver.sv(162) @ 26115000: uvm_test_top.env.agent.drv [axi4lite_driver] [WRITE] ADDR=0x00000ae4 DATA=0x00005aa3 WSTRB=4'b1000 BRESP=AXI_OKAY
# UVM_INFO ../tb/driver/axi4lite_driver.sv(162) @ 26165000: uvm_test_top.env.agent.drv [axi4lite_driver] [WRITE] ADDR=0x00000528 DATA=0x000051f5 WSTRB=4'b0011 BRESP=AXI_OKAY
# UVM_INFO ../tb/driver/axi4lite_driver.sv(162) @ 26215000: uvm_test_top.env.agent.drv [axi4lite_driver] [WRITE] ADDR=0x00000b24 DATA=0x00004dff WSTRB=4'b1011 BRESP=AXI_OKAY
# UVM_INFO ../tb/driver/axi4lite_driver.sv(162) @ 26265000: uvm_test_top.env.agent.drv [axi4lite_driver] [WRITE] ADDR=0x00000dd0 DATA=0x000066c6 WSTRB=4'b1001 BRESP=AXI_OKAY
# UVM_INFO ../tb/driver/axi4lite_driver.sv(162) @ 26315000: uvm_test_top.env.agent.drv [axi4lite_driver] [WRITE] ADDR=0x00000888 DATA=0x000033be WSTRB=4'b1100 BRESP=AXI_OKAY
# UVM_INFO ../tb/driver/axi4lite_driver.sv(162) @ 26365000: uvm_test_top.env.agent.drv [axi4lite_driver] [WRITE] ADDR=0x00000abc DATA=0x0000b1c2 WSTRB=4'b1010 BRESP=AXI_OKAY
# UVM_INFO ../tb/driver/axi4lite_driver.sv(162) @ 26415000: uvm_test_top.env.agent.drv [axi4lite_driver] [WRITE] ADDR=0x00000ad8 DATA=0x0000c973 WSTRB=4'b1110 BRESP=AXI_OKAY
# UVM_INFO ../tb/driver/axi4lite_driver.sv(162) @ 26465000: uvm_test_top.env.agent.drv [axi4lite_driver] [WRITE] ADDR=0x00000008 DATA=0x00000735 WSTRB=4'b0011 BRESP=AXI_OKAY
# UVM_INFO ../tb/driver/axi4lite_driver.sv(162) @ 26515000: uvm_test_top.env.agent.drv [axi4lite_driver] [WRITE] ADDR=0x00000608 DATA=0x0000c5dd WSTRB=4'b1111 BRESP=AXI_OKAY
# UVM_INFO ../tb/driver/axi4lite_driver.sv(162) @ 26575000: uvm_test_top.env.agent.drv [axi4lite_driver] [WRITE] ADDR=0x00000538 DATA=0x0000949f WSTRB=4'b0111 BRESP=AXI_OKAY
# UVM_INFO ../tb/driver/axi4lite_driver.sv(218) @ 26615000: uvm_test_top.env.agent.drv [axi4lite_driver] [READ ] ADDR=0x000004b4 RDATA=0x00000000 RRESP=AXI_OKAY
# UVM_INFO ../tb/driver/axi4lite_driver.sv(218) @ 26655000: uvm_test_top.env.agent.drv [axi4lite_driver] [READ ] ADDR=0x00000c70 RDATA=0x0000f500 RRESP=AXI_OKAY
# UVM_INFO ../tb/driver/axi4lite_driver.sv(218) @ 26695000: uvm_test_top.env.agent.drv [axi4lite_driver] [READ ] ADDR=0x00000ddc RDATA=0x00000000 RRESP=AXI_OKAY
# UVM_INFO ../tb/driver/axi4lite_driver.sv(162) @ 26755000: uvm_test_top.env.agent.drv [axi4lite_driver] [WRITE] ADDR=0x000000ec DATA=0x00004461 WSTRB=4'b0100 BRESP=AXI_OKAY
# UVM_INFO ../tb/driver/axi4lite_driver.sv(162) @ 26805000: uvm_test_top.env.agent.drv [axi4lite_driver] [WRITE] ADDR=0x0000006c DATA=0x00008fb8 WSTRB=4'b0100 BRESP=AXI_OKAY
